Command: /home2/B126/AKSSolomon/VLSI_RN_OFFLINE/AXI2AHB_Bridge/sim/./simv -l ahbnormaltest.log +UVM_TESTNAME=AHB_normal_test +fsdbfile+axiahb.fsdb +ntb_random_seed_automatic -cm_dir ./ahbnormal_data
Chronologic VCS simulator copyright 1991-2025
Contains Synopsys proprietary information.
Compiler version X-2025.06_Full64; Runtime version X-2025.06_Full64;  Jul 31 00:58 2026
NOTE: automatic random seed used: 2467507087
----------------------------------------------------------------
UVM-1.1d.Synopsys
(C) 2007-2013 Mentor Graphics Corporation
(C) 2007-2013 Cadence Design Systems, Inc.
(C) 2006-2013 Synopsys, Inc.
(C) 2011-2013 Cypress Semiconductor Corp.
----------------------------------------------------------------

  ***********       IMPORTANT RELEASE NOTES         ************

  You are using a version of the UVM library that has been compiled
  with `UVM_NO_DEPRECATED undefined.
  See http://www.eda.org/svdb/view.php?id=3313 for more details.

  You are using a version of the UVM library that has been compiled
  with `UVM_OBJECT_MUST_HAVE_CONSTRUCTOR undefined.
  See http://www.eda.org/svdb/view.php?id=3770 for more details.

      (Specify +UVM_NO_RELNOTES to turn off this notice)

UVM_INFO @ 0: reporter [RNTST] Running test AHB_normal_test...
*Verdi* Loading libsscore_vcs202506.so
FSDB Dumper for VCS, Release Verdi_X-2025.06, Linux x86_64/64bit, 05/31/2025
(C) 1996 - 2025 by Synopsys, Inc.
*Verdi* WARNING: Env/runtime option has specified fsdbfile name as "axiahb.fsdb". Fsdbfile name in task "wave.fsdb" is ignored.
*Verdi* FSDB WARNING: The FSDB file already exists. Overwriting the FSDB file may crash the programs that are using this file.
*Verdi* FSDB WARNING: Simv_lock file is locked (axiahb.fsdb.slock). Attempt to overwrite the FSDB (axiahb.fsdb.slock) which is currently written by other process is not permitted
*Verdi* ERROR: Failed to create FSDB file: 'axiahb.fsdb'.
*Verdi* FSDB WARNING: The FSDB file already exists. Overwriting the FSDB file may crash the programs that are using this file.
*Verdi* FSDB WARNING: Simv_lock file is locked (axiahb.fsdb.slock). Attempt to overwrite the FSDB (axiahb.fsdb.slock) which is currently written by other process is not permitted
*Verdi* ERROR: Failed to create FSDB file: 'axiahb.fsdb'.
UVM_INFO @ 0: reporter [UVMTOP] UVM testbench topology:
-------------------------------------------------------------------
Name                        Type                        Size  Value
-------------------------------------------------------------------
uvm_test_top                AHB_normal_test             -     @483 
  env                       env                         -     @500 
    AHB_agth[0]             AHB_agent                   -     @870 
      drvh                  AHB_driver                  -     @918 
        rsp_port            uvm_analysis_port           -     @935 
        seq_item_port       uvm_seq_item_pull_port      -     @926 
      monh                  AHB_monitor                 -     @898 
        AHB_mon_port        uvm_analysis_port           -     @906 
      seqrh                 AHB_sequencer               -     @944 
        rsp_export          uvm_analysis_export         -     @952 
        seq_item_export     uvm_seq_item_pull_imp       -     @1058
        arbitration_queue   array                       0     -    
        lock_queue          array                       0     -    
        num_last_reqs       integral                    32    'd1  
        num_last_rsps       integral                    32    'd1  
    AHB_rst_agth[0]         AHB_rst_agent               -     @885 
      drvh                  AHB_rst_driver              -     @1098
        rsp_port            uvm_analysis_port           -     @1115
        seq_item_port       uvm_seq_item_pull_port      -     @1106
      monh                  AHB_rst_monitor             -     @1079
        AHB_rst_mon_port    uvm_analysis_port           -     @1087
      seqrh                 AHB_rst_sequencer           -     @1124
        rsp_export          uvm_analysis_export         -     @1132
        seq_item_export     uvm_seq_item_pull_imp       -     @1238
        arbitration_queue   array                       0     -    
        lock_queue          array                       0     -    
        num_last_reqs       integral                    32    'd1  
        num_last_rsps       integral                    32    'd1  
    AXI_agth[0]             AXI_agent                   -     @841 
      drvh                  AXI_driver                  -     @1299
        rsp_port            uvm_analysis_port           -     @1316
        seq_item_port       uvm_seq_item_pull_port      -     @1307
      monh                  AXI_monitor                 -     @1263
        AXI_mon_port        uvm_analysis_port           -     @1271
        AXI_rdata_mon_port  uvm_analysis_port           -     @1289
        AXI_wdata_mon_port  uvm_analysis_port           -     @1280
      seqrh                 AXI_sequencer               -     @1325
        rsp_export          uvm_analysis_export         -     @1333
        seq_item_export     uvm_seq_item_pull_imp       -     @1439
        arbitration_queue   array                       0     -    
        lock_queue          array                       0     -    
        num_last_reqs       integral                    32    'd1  
        num_last_rsps       integral                    32    'd1  
    AXI_rst_agth[0]         AXI_rst_agent               -     @856 
      drvh                  AXI_rst_driver              -     @1478
        rsp_port            uvm_analysis_port           -     @1495
        seq_item_port       uvm_seq_item_pull_port      -     @1486
      monh                  AXI_rst_monitor             -     @1460
        AXI_rst_mon_port    uvm_analysis_port           -     @1468
      seqrh                 AXI_rst_sequencer           -     @1504
        rsp_export          uvm_analysis_export         -     @1512
        seq_item_export     uvm_seq_item_pull_imp       -     @1618
        arbitration_queue   array                       0     -    
        lock_queue          array                       0     -    
        num_last_reqs       integral                    32    'd1  
        num_last_rsps       integral                    32    'd1  
    sbh[0]                  scoreboard                  -     @509 
      AHB_fifoh             uvm_tlm_analysis_fifo #(T)  -     @623 
        analysis_export     uvm_analysis_imp            -     @667 
        get_ap              uvm_analysis_port           -     @658 
        get_peek_export     uvm_get_peek_imp            -     @640 
        put_ap              uvm_analysis_port           -     @649 
        put_export          uvm_put_imp                 -     @631 
      AHB_rst_fifoh         uvm_tlm_analysis_fifo #(T)  -     @676 
        analysis_export     uvm_analysis_imp            -     @720 
        get_ap              uvm_analysis_port           -     @711 
        get_peek_export     uvm_get_peek_imp            -     @693 
        put_ap              uvm_analysis_port           -     @702 
        put_export          uvm_put_imp                 -     @684 
      AXI_fifoh             uvm_tlm_analysis_fifo #(T)  -     @517 
        analysis_export     uvm_analysis_imp            -     @561 
        get_ap              uvm_analysis_port           -     @552 
        get_peek_export     uvm_get_peek_imp            -     @534 
        put_ap              uvm_analysis_port           -     @543 
        put_export          uvm_put_imp                 -     @525 
      AXI_rdata_fifoh       uvm_tlm_analysis_fifo #(T)  -     @782 
        analysis_export     uvm_analysis_imp            -     @826 
        get_ap              uvm_analysis_port           -     @817 
        get_peek_export     uvm_get_peek_imp            -     @799 
        put_ap              uvm_analysis_port           -     @808 
        put_export          uvm_put_imp                 -     @790 
      AXI_rst_fifoh         uvm_tlm_analysis_fifo #(T)  -     @570 
        analysis_export     uvm_analysis_imp            -     @614 
        get_ap              uvm_analysis_port           -     @605 
        get_peek_export     uvm_get_peek_imp            -     @587 
        put_ap              uvm_analysis_port           -     @596 
        put_export          uvm_put_imp                 -     @578 
      AXI_wdata_fifoh       uvm_tlm_analysis_fifo #(T)  -     @729 
        analysis_export     uvm_analysis_imp            -     @773 
        get_ap              uvm_analysis_port           -     @764 
        get_peek_export     uvm_get_peek_imp            -     @746 
        put_ap              uvm_analysis_port           -     @755 
        put_export          uvm_put_imp                 -     @737 
-------------------------------------------------------------------

UVM_INFO ../AHB_agt/AHB_monitor.sv(28) @ 0: uvm_test_top.env.AHB_agth[0].monh [AHB_monitor] inside task, before wait
UVM_INFO ../AXI_agt/AXI_monitor.sv(55) @ 0: uvm_test_top.env.AXI_agth[0].monh [AXI_monitor] AW Channel method started
UVM_INFO ../AXI_agt/AXI_monitor.sv(83) @ 0: uvm_test_top.env.AXI_agth[0].monh [AXI_monitor] AR Channel method started
UVM_INFO ../AXI_rst_agt/AXI_rst_driver.sv(18) @ 0: uvm_test_top.env.AXI_rst_agth[0].drvh [AXI_rst_driver] Data in driver
-----------------------------------
Name       Type         Size  Value
-----------------------------------
req        AXI_rst_xtn  -     @1669
  ARESETn  integral     1     'b0  
  BVALID   integral     1     'bx  
  RVALID   integral     1     'bx  
-----------------------------------
UVM_INFO ../AHB_rst_agt/AHB_rst_driver.sv(22) @ 0: uvm_test_top.env.AHB_rst_agth[0].drvh [AHB_rst_driver] Data in AHB_rst_driver
-----------------------------------
Name       Type         Size  Value
-----------------------------------
req        AHB_rst_xtn  -     @1673
  HRESETn  integral     1     'b0  
  HREADY   integral     1     'b1  
  HTRANS   integral     2     'bxx 
-----------------------------------
UVM_INFO ../tb/scoreboard.sv(167) @ 15: uvm_test_top.env.sbh[0] [scoreboard] AHB rst GOOD
UVM_INFO ../tb/scoreboard.sv(157) @ 15: uvm_test_top.env.sbh[0] [scoreboard] AXI rst GOOD
UVM_INFO ../AXI_rst_agt/AXI_rst_driver.sv(18) @ 15: uvm_test_top.env.AXI_rst_agth[0].drvh [AXI_rst_driver] Data in driver
-----------------------------------
Name       Type         Size  Value
-----------------------------------
req        AXI_rst_xtn  -     @1669
  ARESETn  integral     1     'b1  
  BVALID   integral     1     'bx  
  RVALID   integral     1     'bx  
-----------------------------------
UVM_INFO ../AHB_rst_agt/AHB_rst_driver.sv(22) @ 15: uvm_test_top.env.AHB_rst_agth[0].drvh [AHB_rst_driver] Data in AHB_rst_driver
-----------------------------------
Name       Type         Size  Value
-----------------------------------
req        AHB_rst_xtn  -     @1673
  HRESETn  integral     1     'b1  
  HREADY   integral     1     'b0  
  HTRANS   integral     2     'bxx 
-----------------------------------
UVM_INFO ../AHB_agt/AHB_driver.sv(19) @ 35: uvm_test_top.env.AHB_agth[0].drvh [AHB_driver] Data in AHB Driver
---------------------------------------------
Name       Type      Size  Value             
---------------------------------------------
req        AHB_xtn   -     @1795             
  HADDR    integral  32    'h0               
  HWRITE   integral  1     'b0               
  HTRANS   integral  2     'b0               
  HSIZE    integral  3     'd0               
  HBURST   integral  3     'd0               
  HWDATA   integral  64    'h0               
  HBUSREQ  integral  1     'b0               
  HLOCK    integral  1     'b0               
  HREADY   integral  1     'b0               
  HRDATA   integral  64    'ha546a028366f5538
  HRESP    integral  1     'b0               
  HGRANT   integral  1     'b0               
  HMASTER  integral  4     'h4               
---------------------------------------------
UVM_INFO ../AXI_agt/AXI_driver.sv(56) @ 35: uvm_test_top.env.AXI_agth[0].drvh [AXI_driver] aw_channel method started
UVM_INFO ../AHB_agt/AHB_driver.sv(19) @ 45: uvm_test_top.env.AHB_agth[0].drvh [AHB_driver] Data in AHB Driver
---------------------------------------------
Name       Type      Size  Value             
---------------------------------------------
req        AHB_xtn   -     @1795             
  HADDR    integral  32    'h0               
  HWRITE   integral  1     'b0               
  HTRANS   integral  2     'b0               
  HSIZE    integral  3     'd0               
  HBURST   integral  3     'd0               
  HWDATA   integral  64    'h0               
  HBUSREQ  integral  1     'b0               
  HLOCK    integral  1     'b0               
  HREADY   integral  1     'b0               
  HRDATA   integral  64    'hdcad245f3c77acdc
  HRESP    integral  1     'b0               
  HGRANT   integral  1     'b1               
  HMASTER  integral  4     'h7               
---------------------------------------------
UVM_INFO ../AXI_agt/AXI_monitor.sv(118) @ 46: uvm_test_top.env.AXI_agth[0].monh [AXI_monitor] AW Channel - WRITE DATA in AXI MONITOR
--------------------------------
Name       Type      Size  Value
--------------------------------
aw_xtn     AXI_xtn   -     @1659
  AWID     integral  8     202  
  AWADDR   integral  32    'h7d0
  AWLEN    integral  8     'd4  
  AWSIZE   integral  3     'd0  
  AWBURST  integral  2     2    
  AWVALID  integral  1     'b1  
  AWREADY  integral  1     'b1  
  WID      integral  8     'd0  
  WLAST    integral  1     'b0  
  WVALID   integral  1     'b0  
  WREADY   integral  1     'b0  
  BID      integral  8     'd0  
  BRESP    integral  1     'b0  
  BVALID   integral  1     'b0  
  BREADY   integral  1     'b0  
  ARID     integral  8     'd0  
  ARADDR   integral  32    'd0  
  ARLEN    integral  8     'd0  
  ARSIZE   integral  3     'd0  
  ARBURST  integral  2     'd0  
  ARVALID  integral  1     'b0  
  ARREADY  integral  1     'b0  
  RID      integral  8     'd0  
  RLAST    integral  1     'b0  
  RVALID   integral  1     'b0  
  RREADY   integral  1     'b0  
--------------------------------
UVM_INFO ../AXI_agt/AXI_monitor.sv(57) @ 55: uvm_test_top.env.AXI_agth[0].monh [AXI_monitor] AW Channel method ended
UVM_INFO ../AXI_agt/AXI_monitor.sv(198) @ 55: uvm_test_top.env.AXI_agth[0].monh [AXI_monitor] AR CHANNEL - READ DATA in AXI MONITOR
--------------------------------
Name       Type      Size  Value
--------------------------------
ar_xtn     AXI_xtn   -     @1663
  AWID     integral  8     'd0  
  AWADDR   integral  32    'h0  
  AWLEN    integral  8     'd0  
  AWSIZE   integral  3     'd0  
  AWBURST  integral  2     'd0  
  AWVALID  integral  1     'b0  
  AWREADY  integral  1     'b0  
  WID      integral  8     'd0  
  WLAST    integral  1     'b0  
  WVALID   integral  1     'b0  
  WREADY   integral  1     'b0  
  BID      integral  8     'd0  
  BRESP    integral  1     'b0  
  BVALID   integral  1     'b0  
  BREADY   integral  1     'b0  
  ARID     integral  8     251  
  ARADDR   integral  32    'd0  
  ARLEN    integral  8     'd4  
  ARSIZE   integral  3     'd0  
  ARBURST  integral  2     2    
  ARVALID  integral  1     'b1  
  ARREADY  integral  1     'b1  
  RID      integral  8     'd0  
  RLAST    integral  1     'b0  
  RVALID   integral  1     'b0  
  RREADY   integral  1     'b0  
--------------------------------
UVM_INFO ../AXI_agt/AXI_monitor.sv(85) @ 55: uvm_test_top.env.AXI_agth[0].monh [AXI_monitor] AR Channel method ended
UVM_INFO ../AXI_agt/AXI_monitor.sv(65) @ 55: uvm_test_top.env.AXI_agth[0].monh [AXI_monitor] W Channel method started
UVM_INFO ../AXI_agt/AXI_monitor.sv(93) @ 55: uvm_test_top.env.AXI_agth[0].monh [AXI_monitor] R Channel method started
UVM_INFO ../AHB_agt/AHB_driver.sv(19) @ 55: uvm_test_top.env.AHB_agth[0].drvh [AHB_driver] Data in AHB Driver
---------------------------------------------
Name       Type      Size  Value             
---------------------------------------------
req        AHB_xtn   -     @1795             
  HADDR    integral  32    'h0               
  HWRITE   integral  1     'b0               
  HTRANS   integral  2     'b0               
  HSIZE    integral  3     'd0               
  HBURST   integral  3     'd0               
  HWDATA   integral  64    'h0               
  HBUSREQ  integral  1     'b0               
  HLOCK    integral  1     'b0               
  HREADY   integral  1     'b0               
  HRDATA   integral  64    'hb56f9bf8c4f78312
  HRESP    integral  1     'b0               
  HGRANT   integral  1     'b0               
  HMASTER  integral  4     'h8               
---------------------------------------------
UVM_INFO ../AXI_agt/AXI_driver.sv(58) @ 65: uvm_test_top.env.AXI_agth[0].drvh [AXI_driver] aw_channel method ended
UVM_INFO ../AXI_agt/AXI_driver.sv(66) @ 65: uvm_test_top.env.AXI_agth[0].drvh [AXI_driver] w_channel method started
UVM_INFO ../AHB_agt/AHB_driver.sv(19) @ 65: uvm_test_top.env.AHB_agth[0].drvh [AHB_driver] Data in AHB Driver
---------------------------------------------
Name       Type      Size  Value             
---------------------------------------------
req        AHB_xtn   -     @1795             
  HADDR    integral  32    'h0               
  HWRITE   integral  1     'b0               
  HTRANS   integral  2     'b0               
  HSIZE    integral  3     'd0               
  HBURST   integral  3     'd0               
  HWDATA   integral  64    'h0               
  HBUSREQ  integral  1     'b0               
  HLOCK    integral  1     'b0               
  HREADY   integral  1     'b0               
  HRDATA   integral  64    'h592a4c997427bc1f
  HRESP    integral  1     'b0               
  HGRANT   integral  1     'b0               
  HMASTER  integral  4     'h2               
---------------------------------------------
UVM_INFO ../tb/scoreboard.sv(142) @ 75: uvm_test_top.env.sbh[0] [scoreboard] got data for wdata queue
UVM_INFO ../AHB_agt/AHB_driver.sv(19) @ 75: uvm_test_top.env.AHB_agth[0].drvh [AHB_driver] Data in AHB Driver
---------------------------------------------
Name       Type      Size  Value             
---------------------------------------------
req        AHB_xtn   -     @1795             
  HADDR    integral  32    'h0               
  HWRITE   integral  1     'b0               
  HTRANS   integral  2     'b0               
  HSIZE    integral  3     'd0               
  HBURST   integral  3     'd0               
  HWDATA   integral  64    'h0               
  HBUSREQ  integral  1     'b0               
  HLOCK    integral  1     'b0               
  HREADY   integral  1     'b0               
  HRDATA   integral  64    'hf4404e5be8ce0a6b
  HRESP    integral  1     'b0               
  HGRANT   integral  1     'b1               
  HMASTER  integral  4     'h8               
---------------------------------------------
UVM_INFO ../tb/scoreboard.sv(142) @ 85: uvm_test_top.env.sbh[0] [scoreboard] got data for wdata queue
UVM_INFO ../AHB_agt/AHB_driver.sv(19) @ 85: uvm_test_top.env.AHB_agth[0].drvh [AHB_driver] Data in AHB Driver
---------------------------------------------
Name       Type      Size  Value             
---------------------------------------------
req        AHB_xtn   -     @1795             
  HADDR    integral  32    'h0               
  HWRITE   integral  1     'b0               
  HTRANS   integral  2     'b0               
  HSIZE    integral  3     'd0               
  HBURST   integral  3     'd0               
  HWDATA   integral  64    'h0               
  HBUSREQ  integral  1     'b0               
  HLOCK    integral  1     'b0               
  HREADY   integral  1     'b0               
  HRDATA   integral  64    'ha367b0ba016dae55
  HRESP    integral  1     'b1               
  HGRANT   integral  1     'b0               
  HMASTER  integral  4     'h5               
---------------------------------------------
UVM_INFO ../AHB_agt/AHB_driver.sv(19) @ 95: uvm_test_top.env.AHB_agth[0].drvh [AHB_driver] Data in AHB Driver
--------------------------------------------
Name       Type      Size  Value            
--------------------------------------------
req        AHB_xtn   -     @1795            
  HADDR    integral  32    'h0              
  HWRITE   integral  1     'b0              
  HTRANS   integral  2     'b0              
  HSIZE    integral  3     'd0              
  HBURST   integral  3     'd0              
  HWDATA   integral  64    'h0              
  HBUSREQ  integral  1     'b0              
  HLOCK    integral  1     'b0              
  HREADY   integral  1     'b1              
  HRDATA   integral  64    'hb570af2bfb05df3
  HRESP    integral  1     'b0              
  HGRANT   integral  1     'b1              
  HMASTER  integral  4     'h1              
--------------------------------------------
UVM_INFO ../tb/scoreboard.sv(142) @ 105: uvm_test_top.env.sbh[0] [scoreboard] got data for wdata queue
UVM_INFO ../AHB_agt/AHB_driver.sv(19) @ 105: uvm_test_top.env.AHB_agth[0].drvh [AHB_driver] Data in AHB Driver
---------------------------------------------
Name       Type      Size  Value             
---------------------------------------------
req        AHB_xtn   -     @1795             
  HADDR    integral  32    'h0               
  HWRITE   integral  1     'b0               
  HTRANS   integral  2     'b0               
  HSIZE    integral  3     'd0               
  HBURST   integral  3     'd0               
  HWDATA   integral  64    'h0               
  HBUSREQ  integral  1     'b0               
  HLOCK    integral  1     'b0               
  HREADY   integral  1     'b1               
  HRDATA   integral  64    'hdd241d3c421911c1
  HRESP    integral  1     'b1               
  HGRANT   integral  1     'b1               
  HMASTER  integral  4     'hd               
---------------------------------------------
UVM_INFO ../tb/scoreboard.sv(142) @ 115: uvm_test_top.env.sbh[0] [scoreboard] got data for wdata queue
UVM_INFO ../AHB_agt/AHB_driver.sv(19) @ 115: uvm_test_top.env.AHB_agth[0].drvh [AHB_driver] Data in AHB Driver
---------------------------------------------
Name       Type      Size  Value             
---------------------------------------------
req        AHB_xtn   -     @1795             
  HADDR    integral  32    'h0               
  HWRITE   integral  1     'b0               
  HTRANS   integral  2     'b0               
  HSIZE    integral  3     'd0               
  HBURST   integral  3     'd0               
  HWDATA   integral  64    'h0               
  HBUSREQ  integral  1     'b0               
  HLOCK    integral  1     'b0               
  HREADY   integral  1     'b0               
  HRDATA   integral  64    'hb8a7f6d35a7fdd8b
  HRESP    integral  1     'b0               
  HGRANT   integral  1     'b0               
  HMASTER  integral  4     'hb               
---------------------------------------------
UVM_INFO ../AHB_agt/AHB_driver.sv(19) @ 125: uvm_test_top.env.AHB_agth[0].drvh [AHB_driver] Data in AHB Driver
---------------------------------------------
Name       Type      Size  Value             
---------------------------------------------
req        AHB_xtn   -     @1795             
  HADDR    integral  32    'h0               
  HWRITE   integral  1     'b0               
  HTRANS   integral  2     'b0               
  HSIZE    integral  3     'd0               
  HBURST   integral  3     'd0               
  HWDATA   integral  64    'h0               
  HBUSREQ  integral  1     'b0               
  HLOCK    integral  1     'b0               
  HREADY   integral  1     'b0               
  HRDATA   integral  64    'hbec177a4d0269302
  HRESP    integral  1     'b1               
  HGRANT   integral  1     'b1               
  HMASTER  integral  4     'hb               
---------------------------------------------
UVM_INFO ../AHB_agt/AHB_monitor.sv(30) @ 135: uvm_test_top.env.AHB_agth[0].monh [AHB_monitor] inside task, after wait
UVM_INFO ../AHB_agt/AHB_monitor.sv(59) @ 135: uvm_test_top.env.AHB_agth[0].monh [AHB_monitor] Monitor Data: 
 "--------------------------------
Name       Type      Size  Value
--------------------------------
ahb_xtn    AHB_xtn   -     @1635
  HADDR    integral  32    'h0  
  HWRITE   integral  1     'b0  
  HTRANS   integral  2     'b10 
  HSIZE    integral  3     'd0  
  HBURST   integral  3     'd0  
  HWDATA   integral  64    'h0  
  HBUSREQ  integral  1     'b0  
  HLOCK    integral  1     'b0  
  HREADY   integral  1     'b1  
  HRDATA   integral  64    'h0  
  HRESP    integral  1     'b0  
  HGRANT   integral  1     'b0  
  HMASTER  integral  4     'h0  
--------------------------------
"
UVM_INFO ../AHB_agt/AHB_monitor.sv(28) @ 135: uvm_test_top.env.AHB_agth[0].monh [AHB_monitor] inside task, before wait
UVM_INFO ../AHB_agt/AHB_monitor.sv(30) @ 135: uvm_test_top.env.AHB_agth[0].monh [AHB_monitor] inside task, after wait
UVM_INFO ../AXI_agt/AXI_monitor.sv(159) @ 135: uvm_test_top.env.AXI_agth[0].monh [AXI_monitor] W Channel - WRITE DATA in AXI MONITOR
----------------------------------------------
Name        Type      Size  Value             
----------------------------------------------
aw_xtn      AXI_xtn   -     @1659             
  AWID      integral  8     202               
  AWADDR    integral  32    'h7d0             
  AWLEN     integral  8     'd4               
  AWSIZE    integral  3     'd0               
  AWBURST   integral  2     2                 
  AWVALID   integral  1     'b1               
  AWREADY   integral  1     'b1               
  WID       integral  8     202               
  WDATA[0]  integral  64    'h39af7e1202d9ecf0
  WDATA[1]  integral  64    'h39af7e1202d9ecf0
  WDATA[2]  integral  64    'h5d72d6dbebfb8bf5
  WDATA[3]  integral  64    'h5d72d6dbebfb8bf5
  WDATA[4]  integral  64    'h950bd7abccd59e34
  WSTRB[0]  integral  8     'b1               
  WSTRB[1]  integral  8     'b1               
  WSTRB[2]  integral  8     'b10              
  WSTRB[3]  integral  8     'b10              
  WSTRB[4]  integral  8     'b100             
  WLAST     integral  1     'b0               
  WVALID    integral  1     'b1               
  WREADY    integral  1     'b1               
  BID       integral  8     'd0               
  BRESP     integral  1     'b0               
  BVALID    integral  1     'b0               
  BREADY    integral  1     'b0               
  ARID      integral  8     'd0               
  ARADDR    integral  32    'd0               
  ARLEN     integral  8     'd0               
  ARSIZE    integral  3     'd0               
  ARBURST   integral  2     'd0               
  ARVALID   integral  1     'b0               
  ARREADY   integral  1     'b0               
  RID       integral  8     'd0               
  RLAST     integral  1     'b0               
  RVALID    integral  1     'b0               
  RREADY    integral  1     'b0               
----------------------------------------------
UVM_INFO ../AXI_agt/AXI_monitor.sv(67) @ 135: uvm_test_top.env.AXI_agth[0].monh [AXI_monitor] W Channel method ended
UVM_INFO ../tb/scoreboard.sv(134) @ 135: uvm_test_top.env.sbh[0] [scoreboard] got ahb data
UVM_INFO ../tb/scoreboard.sv(199) @ 135: uvm_test_top.env.sbh[0] [scoreboard] waiting for rdata queue
UVM_INFO ../tb/scoreboard.sv(142) @ 135: uvm_test_top.env.sbh[0] [scoreboard] got data for wdata queue
UVM_INFO ../AXI_agt/AXI_monitor.sv(75) @ 135: uvm_test_top.env.AXI_agth[0].monh [AXI_monitor] B Channel method started
UVM_INFO ../AHB_agt/AHB_driver.sv(19) @ 135: uvm_test_top.env.AHB_agth[0].drvh [AHB_driver] Data in AHB Driver
---------------------------------------------
Name       Type      Size  Value             
---------------------------------------------
req        AHB_xtn   -     @1795             
  HADDR    integral  32    'h0               
  HWRITE   integral  1     'b0               
  HTRANS   integral  2     'b0               
  HSIZE    integral  3     'd0               
  HBURST   integral  3     'd0               
  HWDATA   integral  64    'h0               
  HBUSREQ  integral  1     'b0               
  HLOCK    integral  1     'b0               
  HREADY   integral  1     'b0               
  HRDATA   integral  64    'h16931cf87419fa7a
  HRESP    integral  1     'b1               
  HGRANT   integral  1     'b1               
  HMASTER  integral  4     'he               
---------------------------------------------
UVM_INFO ../AHB_agt/AHB_monitor.sv(59) @ 145: uvm_test_top.env.AHB_agth[0].monh [AHB_monitor] Monitor Data: 
 "---------------------------------------------
Name       Type      Size  Value             
---------------------------------------------
ahb_xtn    AHB_xtn   -     @1848             
  HADDR    integral  32    'h0               
  HWRITE   integral  1     'b0               
  HTRANS   integral  2     'b10              
  HSIZE    integral  3     'd0               
  HBURST   integral  3     'd0               
  HWDATA   integral  64    'h0               
  HBUSREQ  integral  1     'b0               
  HLOCK    integral  1     'b0               
  HREADY   integral  1     'b1               
  HRDATA   integral  64    'h16931cf87419fa7a
  HRESP    integral  1     'b0               
  HGRANT   integral  1     'b0               
  HMASTER  integral  4     'h0               
---------------------------------------------
"
UVM_INFO ../AHB_agt/AHB_monitor.sv(28) @ 145: uvm_test_top.env.AHB_agth[0].monh [AHB_monitor] inside task, before wait
UVM_INFO ../AHB_agt/AHB_monitor.sv(30) @ 145: uvm_test_top.env.AHB_agth[0].monh [AHB_monitor] inside task, after wait
UVM_INFO ../AHB_agt/AHB_driver.sv(19) @ 145: uvm_test_top.env.AHB_agth[0].drvh [AHB_driver] Data in AHB Driver
---------------------------------------------
Name       Type      Size  Value             
---------------------------------------------
req        AHB_xtn   -     @1795             
  HADDR    integral  32    'h0               
  HWRITE   integral  1     'b0               
  HTRANS   integral  2     'b0               
  HSIZE    integral  3     'd0               
  HBURST   integral  3     'd0               
  HWDATA   integral  64    'h0               
  HBUSREQ  integral  1     'b0               
  HLOCK    integral  1     'b0               
  HREADY   integral  1     'b0               
  HRDATA   integral  64    'h97d68f8c8d0b1012
  HRESP    integral  1     'b0               
  HGRANT   integral  1     'b0               
  HMASTER  integral  4     'hb               
---------------------------------------------
UVM_INFO ../AHB_agt/AHB_monitor.sv(59) @ 155: uvm_test_top.env.AHB_agth[0].monh [AHB_monitor] Monitor Data: 
 "---------------------------------------------
Name       Type      Size  Value             
---------------------------------------------
ahb_xtn    AHB_xtn   -     @1860             
  HADDR    integral  32    'h0               
  HWRITE   integral  1     'b0               
  HTRANS   integral  2     'b10              
  HSIZE    integral  3     'd0               
  HBURST   integral  3     'd0               
  HWDATA   integral  64    'h0               
  HBUSREQ  integral  1     'b0               
  HLOCK    integral  1     'b0               
  HREADY   integral  1     'b1               
  HRDATA   integral  64    'h97d68f8c8d0b1012
  HRESP    integral  1     'b0               
  HGRANT   integral  1     'b0               
  HMASTER  integral  4     'h0               
---------------------------------------------
"
UVM_INFO ../AHB_agt/AHB_monitor.sv(28) @ 155: uvm_test_top.env.AHB_agth[0].monh [AHB_monitor] inside task, before wait
UVM_INFO ../AHB_agt/AHB_monitor.sv(30) @ 155: uvm_test_top.env.AHB_agth[0].monh [AHB_monitor] inside task, after wait
UVM_INFO ../AHB_agt/AHB_driver.sv(19) @ 155: uvm_test_top.env.AHB_agth[0].drvh [AHB_driver] Data in AHB Driver
---------------------------------------------
Name       Type      Size  Value             
---------------------------------------------
req        AHB_xtn   -     @1795             
  HADDR    integral  32    'h0               
  HWRITE   integral  1     'b0               
  HTRANS   integral  2     'b0               
  HSIZE    integral  3     'd0               
  HBURST   integral  3     'd0               
  HWDATA   integral  64    'h0               
  HBUSREQ  integral  1     'b0               
  HLOCK    integral  1     'b0               
  HREADY   integral  1     'b0               
  HRDATA   integral  64    'hbfdd7c9cb64c84fc
  HRESP    integral  1     'b1               
  HGRANT   integral  1     'b0               
  HMASTER  integral  4     'h7               
---------------------------------------------
UVM_INFO ../AHB_agt/AHB_monitor.sv(43) @ 165: uvm_test_top.env.AHB_agth[0].monh [AHB_monitor] inside hwrite monitor, before wait
UVM_INFO ../AHB_agt/AHB_monitor.sv(45) @ 165: uvm_test_top.env.AHB_agth[0].monh [AHB_monitor] inside hwrite monitor, after wait
UVM_INFO ../AHB_agt/AHB_monitor.sv(59) @ 165: uvm_test_top.env.AHB_agth[0].monh [AHB_monitor] Monitor Data: 
 "---------------------------------
Name       Type      Size  Value 
---------------------------------
ahb_xtn    AHB_xtn   -     @1864 
  HADDR    integral  32    'h7d0 
  HWRITE   integral  1     'b1   
  HTRANS   integral  2     'b10  
  HSIZE    integral  3     'd0   
  HBURST   integral  3     'd0   
  HWDATA   integral  64    'h8b00
  HBUSREQ  integral  1     'b0   
  HLOCK    integral  1     'b0   
  HREADY   integral  1     'b1   
  HRDATA   integral  64    'h0   
  HRESP    integral  1     'b0   
  HGRANT   integral  1     'b0   
  HMASTER  integral  4     'h0   
---------------------------------
"
UVM_INFO ../AHB_agt/AHB_monitor.sv(28) @ 165: uvm_test_top.env.AHB_agth[0].monh [AHB_monitor] inside task, before wait
UVM_INFO ../AHB_agt/AHB_monitor.sv(30) @ 165: uvm_test_top.env.AHB_agth[0].monh [AHB_monitor] inside task, after wait
UVM_INFO ../AHB_agt/AHB_driver.sv(19) @ 165: uvm_test_top.env.AHB_agth[0].drvh [AHB_driver] Data in AHB Driver
---------------------------------------------
Name       Type      Size  Value             
---------------------------------------------
req        AHB_xtn   -     @1795             
  HADDR    integral  32    'h0               
  HWRITE   integral  1     'b0               
  HTRANS   integral  2     'b0               
  HSIZE    integral  3     'd0               
  HBURST   integral  3     'd0               
  HWDATA   integral  64    'h0               
  HBUSREQ  integral  1     'b0               
  HLOCK    integral  1     'b0               
  HREADY   integral  1     'b1               
  HRDATA   integral  64    'h1707bbae6ae6c2bf
  HRESP    integral  1     'b1               
  HGRANT   integral  1     'b1               
  HMASTER  integral  4     'h4               
---------------------------------------------
UVM_INFO ../AHB_agt/AHB_monitor.sv(43) @ 175: uvm_test_top.env.AHB_agth[0].monh [AHB_monitor] inside hwrite monitor, before wait
UVM_INFO ../AHB_agt/AHB_monitor.sv(45) @ 175: uvm_test_top.env.AHB_agth[0].monh [AHB_monitor] inside hwrite monitor, after wait
UVM_INFO ../AHB_agt/AHB_monitor.sv(59) @ 175: uvm_test_top.env.AHB_agth[0].monh [AHB_monitor] Monitor Data: 
 "---------------------------------
Name       Type      Size  Value 
---------------------------------
ahb_xtn    AHB_xtn   -     @1872 
  HADDR    integral  32    'h7d1 
  HWRITE   integral  1     'b1   
  HTRANS   integral  2     'b10  
  HSIZE    integral  3     'd0   
  HBURST   integral  3     'd0   
  HWDATA   integral  64    'h8b00
  HBUSREQ  integral  1     'b0   
  HLOCK    integral  1     'b0   
  HREADY   integral  1     'b1   
  HRDATA   integral  64    'h0   
  HRESP    integral  1     'b0   
  HGRANT   integral  1     'b0   
  HMASTER  integral  4     'h0   
---------------------------------
"
UVM_INFO ../AHB_agt/AHB_monitor.sv(28) @ 175: uvm_test_top.env.AHB_agth[0].monh [AHB_monitor] inside task, before wait
UVM_INFO ../AHB_agt/AHB_monitor.sv(30) @ 175: uvm_test_top.env.AHB_agth[0].monh [AHB_monitor] inside task, after wait
UVM_INFO ../AHB_agt/AHB_driver.sv(19) @ 175: uvm_test_top.env.AHB_agth[0].drvh [AHB_driver] Data in AHB Driver
---------------------------------------------
Name       Type      Size  Value             
---------------------------------------------
req        AHB_xtn   -     @1795             
  HADDR    integral  32    'h0               
  HWRITE   integral  1     'b0               
  HTRANS   integral  2     'b0               
  HSIZE    integral  3     'd0               
  HBURST   integral  3     'd0               
  HWDATA   integral  64    'h0               
  HBUSREQ  integral  1     'b0               
  HLOCK    integral  1     'b0               
  HREADY   integral  1     'b0               
  HRDATA   integral  64    'hceebb0a1e68fd7e1
  HRESP    integral  1     'b1               
  HGRANT   integral  1     'b0               
  HMASTER  integral  4     'h7               
---------------------------------------------
UVM_INFO ../AHB_agt/AHB_monitor.sv(43) @ 185: uvm_test_top.env.AHB_agth[0].monh [AHB_monitor] inside hwrite monitor, before wait
UVM_INFO ../AHB_agt/AHB_monitor.sv(45) @ 185: uvm_test_top.env.AHB_agth[0].monh [AHB_monitor] inside hwrite monitor, after wait
UVM_INFO ../AHB_agt/AHB_monitor.sv(59) @ 185: uvm_test_top.env.AHB_agth[0].monh [AHB_monitor] Monitor Data: 
 "-----------------------------------
Name       Type      Size  Value   
-----------------------------------
ahb_xtn    AHB_xtn   -     @1876   
  HADDR    integral  32    'h7d1   
  HWRITE   integral  1     'b1     
  HTRANS   integral  2     'b10    
  HSIZE    integral  3     'd0     
  HBURST   integral  3     'd0     
  HWDATA   integral  64    'hd50000
  HBUSREQ  integral  1     'b0     
  HLOCK    integral  1     'b0     
  HREADY   integral  1     'b1     
  HRDATA   integral  64    'h0     
  HRESP    integral  1     'b0     
  HGRANT   integral  1     'b0     
  HMASTER  integral  4     'h0     
-----------------------------------
"
UVM_INFO ../AHB_agt/AHB_monitor.sv(28) @ 185: uvm_test_top.env.AHB_agth[0].monh [AHB_monitor] inside task, before wait
UVM_INFO ../AHB_agt/AHB_monitor.sv(30) @ 185: uvm_test_top.env.AHB_agth[0].monh [AHB_monitor] inside task, after wait
UVM_INFO ../AHB_agt/AHB_driver.sv(19) @ 185: uvm_test_top.env.AHB_agth[0].drvh [AHB_driver] Data in AHB Driver
---------------------------------------------
Name       Type      Size  Value             
---------------------------------------------
req        AHB_xtn   -     @1795             
  HADDR    integral  32    'h0               
  HWRITE   integral  1     'b0               
  HTRANS   integral  2     'b0               
  HSIZE    integral  3     'd0               
  HBURST   integral  3     'd0               
  HWDATA   integral  64    'h0               
  HBUSREQ  integral  1     'b0               
  HLOCK    integral  1     'b0               
  HREADY   integral  1     'b1               
  HRDATA   integral  64    'h3309774c354c6e6c
  HRESP    integral  1     'b1               
  HGRANT   integral  1     'b0               
  HMASTER  integral  4     'h5               
---------------------------------------------
UVM_INFO ../AHB_agt/AHB_monitor.sv(43) @ 195: uvm_test_top.env.AHB_agth[0].monh [AHB_monitor] inside hwrite monitor, before wait
UVM_INFO ../AHB_agt/AHB_monitor.sv(45) @ 195: uvm_test_top.env.AHB_agth[0].monh [AHB_monitor] inside hwrite monitor, after wait
UVM_INFO ../AHB_agt/AHB_monitor.sv(59) @ 195: uvm_test_top.env.AHB_agth[0].monh [AHB_monitor] Monitor Data: 
 "--------------------------------
Name       Type      Size  Value
--------------------------------
ahb_xtn    AHB_xtn   -     @1884
  HADDR    integral  32    'h7d2
  HWRITE   integral  1     'b1  
  HTRANS   integral  2     'b10 
  HSIZE    integral  3     'd0  
  HBURST   integral  3     'd0  
  HWDATA   integral  64    'h0  
  HBUSREQ  integral  1     'b0  
  HLOCK    integral  1     'b0  
  HREADY   integral  1     'b1  
  HRDATA   integral  64    'h0  
  HRESP    integral  1     'b0  
  HGRANT   integral  1     'b0  
  HMASTER  integral  4     'h0  
--------------------------------
"
UVM_INFO ../AHB_agt/AHB_monitor.sv(28) @ 195: uvm_test_top.env.AHB_agth[0].monh [AHB_monitor] inside task, before wait
UVM_INFO ../AHB_agt/AHB_driver.sv(19) @ 195: uvm_test_top.env.AHB_agth[0].drvh [AHB_driver] Data in AHB Driver
---------------------------------------------
Name       Type      Size  Value             
---------------------------------------------
req        AHB_xtn   -     @1795             
  HADDR    integral  32    'h0               
  HWRITE   integral  1     'b0               
  HTRANS   integral  2     'b0               
  HSIZE    integral  3     'd0               
  HBURST   integral  3     'd0               
  HWDATA   integral  64    'h0               
  HBUSREQ  integral  1     'b0               
  HLOCK    integral  1     'b0               
  HREADY   integral  1     'b1               
  HRDATA   integral  64    'hd0c988e2b4ba5d41
  HRESP    integral  1     'b0               
  HGRANT   integral  1     'b1               
  HMASTER  integral  4     'hb               
---------------------------------------------
UVM_INFO ../AHB_agt/AHB_driver.sv(19) @ 205: uvm_test_top.env.AHB_agth[0].drvh [AHB_driver] Data in AHB Driver
---------------------------------------------
Name       Type      Size  Value             
---------------------------------------------
req        AHB_xtn   -     @1795             
  HADDR    integral  32    'h0               
  HWRITE   integral  1     'b0               
  HTRANS   integral  2     'b0               
  HSIZE    integral  3     'd0               
  HBURST   integral  3     'd0               
  HWDATA   integral  64    'h0               
  HBUSREQ  integral  1     'b0               
  HLOCK    integral  1     'b0               
  HREADY   integral  1     'b1               
  HRDATA   integral  64    'had4445ddf7813125
  HRESP    integral  1     'b0               
  HGRANT   integral  1     'b0               
  HMASTER  integral  4     'h2               
---------------------------------------------
UVM_INFO ../AXI_agt/AXI_driver.sv(68) @ 215: uvm_test_top.env.AXI_agth[0].drvh [AXI_driver] w_channel method ended
UVM_INFO ../AXI_agt/AXI_driver.sv(76) @ 215: uvm_test_top.env.AXI_agth[0].drvh [AXI_driver] b_channel method started
UVM_INFO ../AHB_agt/AHB_driver.sv(19) @ 215: uvm_test_top.env.AHB_agth[0].drvh [AHB_driver] Data in AHB Driver
---------------------------------------------
Name       Type      Size  Value             
---------------------------------------------
req        AHB_xtn   -     @1795             
  HADDR    integral  32    'h0               
  HWRITE   integral  1     'b0               
  HTRANS   integral  2     'b0               
  HSIZE    integral  3     'd0               
  HBURST   integral  3     'd0               
  HWDATA   integral  64    'h0               
  HBUSREQ  integral  1     'b0               
  HLOCK    integral  1     'b0               
  HREADY   integral  1     'b1               
  HRDATA   integral  64    'h254bb0fbcd0fc356
  HRESP    integral  1     'b1               
  HGRANT   integral  1     'b1               
  HMASTER  integral  4     'h9               
---------------------------------------------
UVM_INFO ../AHB_agt/AHB_driver.sv(19) @ 225: uvm_test_top.env.AHB_agth[0].drvh [AHB_driver] Data in AHB Driver
---------------------------------------------
Name       Type      Size  Value             
---------------------------------------------
req        AHB_xtn   -     @1795             
  HADDR    integral  32    'h0               
  HWRITE   integral  1     'b0               
  HTRANS   integral  2     'b0               
  HSIZE    integral  3     'd0               
  HBURST   integral  3     'd0               
  HWDATA   integral  64    'h0               
  HBUSREQ  integral  1     'b0               
  HLOCK    integral  1     'b0               
  HREADY   integral  1     'b0               
  HRDATA   integral  64    'h41f3af6d9610bf95
  HRESP    integral  1     'b1               
  HGRANT   integral  1     'b0               
  HMASTER  integral  4     'ha               
---------------------------------------------
UVM_INFO ../AHB_agt/AHB_monitor.sv(30) @ 235: uvm_test_top.env.AHB_agth[0].monh [AHB_monitor] inside task, after wait
UVM_INFO ../AHB_agt/AHB_monitor.sv(59) @ 235: uvm_test_top.env.AHB_agth[0].monh [AHB_monitor] Monitor Data: 
 "---------------------------------------------
Name       Type      Size  Value             
---------------------------------------------
ahb_xtn    AHB_xtn   -     @1888             
  HADDR    integral  32    'h0               
  HWRITE   integral  1     'b0               
  HTRANS   integral  2     'b10              
  HSIZE    integral  3     'd0               
  HBURST   integral  3     'd0               
  HWDATA   integral  64    'h0               
  HBUSREQ  integral  1     'b0               
  HLOCK    integral  1     'b0               
  HREADY   integral  1     'b1               
  HRDATA   integral  64    'h97d68f8c8d0b1012
  HRESP    integral  1     'b0               
  HGRANT   integral  1     'b0               
  HMASTER  integral  4     'h0               
---------------------------------------------
"
UVM_INFO ../AHB_agt/AHB_monitor.sv(28) @ 235: uvm_test_top.env.AHB_agth[0].monh [AHB_monitor] inside task, before wait
UVM_INFO ../AHB_agt/AHB_monitor.sv(30) @ 235: uvm_test_top.env.AHB_agth[0].monh [AHB_monitor] inside task, after wait
UVM_INFO ../AXI_agt/AXI_driver.sv(140) @ 235: uvm_test_top.env.AXI_agth[0].drvh [AXI_driver] Inside b_channel driving logic - waiting for bvalid
UVM_INFO ../AHB_agt/AHB_driver.sv(19) @ 235: uvm_test_top.env.AHB_agth[0].drvh [AHB_driver] Data in AHB Driver
---------------------------------------------
Name       Type      Size  Value             
---------------------------------------------
req        AHB_xtn   -     @1795             
  HADDR    integral  32    'h0               
  HWRITE   integral  1     'b0               
  HTRANS   integral  2     'b0               
  HSIZE    integral  3     'd0               
  HBURST   integral  3     'd0               
  HWDATA   integral  64    'h0               
  HBUSREQ  integral  1     'b0               
  HLOCK    integral  1     'b0               
  HREADY   integral  1     'b1               
  HRDATA   integral  64    'h39b24e7400714229
  HRESP    integral  1     'b0               
  HGRANT   integral  1     'b0               
  HMASTER  integral  4     'he               
---------------------------------------------
UVM_INFO ../AHB_agt/AHB_monitor.sv(59) @ 245: uvm_test_top.env.AHB_agth[0].monh [AHB_monitor] Monitor Data: 
 "---------------------------------------------
Name       Type      Size  Value             
---------------------------------------------
ahb_xtn    AHB_xtn   -     @1900             
  HADDR    integral  32    'h0               
  HWRITE   integral  1     'b0               
  HTRANS   integral  2     'b10              
  HSIZE    integral  3     'd0               
  HBURST   integral  3     'd0               
  HWDATA   integral  64    'h0               
  HBUSREQ  integral  1     'b0               
  HLOCK    integral  1     'b0               
  HREADY   integral  1     'b1               
  HRDATA   integral  64    'h39b24e7400714229
  HRESP    integral  1     'b0               
  HGRANT   integral  1     'b0               
  HMASTER  integral  4     'h0               
---------------------------------------------
"
UVM_INFO ../AHB_agt/AHB_monitor.sv(28) @ 245: uvm_test_top.env.AHB_agth[0].monh [AHB_monitor] inside task, before wait
UVM_INFO ../AHB_agt/AHB_monitor.sv(30) @ 245: uvm_test_top.env.AHB_agth[0].monh [AHB_monitor] inside task, after wait
UVM_INFO ../tb/scoreboard.sv(208) @ 245: uvm_test_top.env.sbh[0] [scoreboard] DATA MISMATCH :(, axi_rdata = 97d68f8c8d0b1012, ahb_rdata = 0
UVM_INFO ../tb/scoreboard.sv(134) @ 245: uvm_test_top.env.sbh[0] [scoreboard] got ahb data
UVM_INFO ../tb/scoreboard.sv(199) @ 245: uvm_test_top.env.sbh[0] [scoreboard] waiting for rdata queue
UVM_INFO ../AHB_agt/AHB_driver.sv(19) @ 245: uvm_test_top.env.AHB_agth[0].drvh [AHB_driver] Data in AHB Driver
---------------------------------------------
Name       Type      Size  Value             
---------------------------------------------
req        AHB_xtn   -     @1795             
  HADDR    integral  32    'h0               
  HWRITE   integral  1     'b0               
  HTRANS   integral  2     'b0               
  HSIZE    integral  3     'd0               
  HBURST   integral  3     'd0               
  HWDATA   integral  64    'h0               
  HBUSREQ  integral  1     'b0               
  HLOCK    integral  1     'b0               
  HREADY   integral  1     'b0               
  HRDATA   integral  64    'h9374750a01f280a1
  HRESP    integral  1     'b1               
  HGRANT   integral  1     'b1               
  HMASTER  integral  4     'h3               
---------------------------------------------
UVM_INFO ../AHB_agt/AHB_monitor.sv(59) @ 255: uvm_test_top.env.AHB_agth[0].monh [AHB_monitor] Monitor Data: 
 "---------------------------------------------
Name       Type      Size  Value             
---------------------------------------------
ahb_xtn    AHB_xtn   -     @1912             
  HADDR    integral  32    'h0               
  HWRITE   integral  1     'b0               
  HTRANS   integral  2     'b10              
  HSIZE    integral  3     'd0               
  HBURST   integral  3     'd0               
  HWDATA   integral  64    'h0               
  HBUSREQ  integral  1     'b0               
  HLOCK    integral  1     'b0               
  HREADY   integral  1     'b1               
  HRDATA   integral  64    'h9374750a01f280a1
  HRESP    integral  1     'b0               
  HGRANT   integral  1     'b0               
  HMASTER  integral  4     'h0               
---------------------------------------------
"
UVM_INFO ../AHB_agt/AHB_monitor.sv(28) @ 255: uvm_test_top.env.AHB_agth[0].monh [AHB_monitor] inside task, before wait
UVM_INFO ../AHB_agt/AHB_monitor.sv(30) @ 255: uvm_test_top.env.AHB_agth[0].monh [AHB_monitor] inside task, after wait
UVM_INFO ../tb/scoreboard.sv(208) @ 255: uvm_test_top.env.sbh[0] [scoreboard] DATA MISMATCH :(, axi_rdata = 97d68f8c8d0b1012, ahb_rdata = 16931cf87419fa7a
UVM_INFO ../tb/scoreboard.sv(134) @ 255: uvm_test_top.env.sbh[0] [scoreboard] got ahb data
UVM_INFO ../tb/scoreboard.sv(199) @ 255: uvm_test_top.env.sbh[0] [scoreboard] waiting for rdata queue
UVM_INFO ../AHB_agt/AHB_driver.sv(19) @ 255: uvm_test_top.env.AHB_agth[0].drvh [AHB_driver] Data in AHB Driver
---------------------------------------------
Name       Type      Size  Value             
---------------------------------------------
req        AHB_xtn   -     @1795             
  HADDR    integral  32    'h0               
  HWRITE   integral  1     'b0               
  HTRANS   integral  2     'b0               
  HSIZE    integral  3     'd0               
  HBURST   integral  3     'd0               
  HWDATA   integral  64    'h0               
  HBUSREQ  integral  1     'b0               
  HLOCK    integral  1     'b0               
  HREADY   integral  1     'b1               
  HRDATA   integral  64    'h5b533b1773fe5fb7
  HRESP    integral  1     'b1               
  HGRANT   integral  1     'b1               
  HMASTER  integral  4     'h8               
---------------------------------------------
UVM_INFO ../AHB_agt/AHB_monitor.sv(43) @ 265: uvm_test_top.env.AHB_agth[0].monh [AHB_monitor] inside hwrite monitor, before wait
UVM_INFO ../AHB_agt/AHB_monitor.sv(45) @ 265: uvm_test_top.env.AHB_agth[0].monh [AHB_monitor] inside hwrite monitor, after wait
UVM_INFO ../AHB_agt/AHB_monitor.sv(59) @ 265: uvm_test_top.env.AHB_agth[0].monh [AHB_monitor] Monitor Data: 
 "---------------------------------------
Name       Type      Size  Value       
---------------------------------------
ahb_xtn    AHB_xtn   -     @1920       
  HADDR    integral  32    'h7d3       
  HWRITE   integral  1     'b1         
  HTRANS   integral  2     'b10        
  HSIZE    integral  3     'd0         
  HBURST   integral  3     'd0         
  HWDATA   integral  64    'hff00000000
  HBUSREQ  integral  1     'b0         
  HLOCK    integral  1     'b0         
  HREADY   integral  1     'b1         
  HRDATA   integral  64    'h0         
  HRESP    integral  1     'b0         
  HGRANT   integral  1     'b0         
  HMASTER  integral  4     'h0         
---------------------------------------
"
UVM_INFO ../AHB_agt/AHB_monitor.sv(28) @ 265: uvm_test_top.env.AHB_agth[0].monh [AHB_monitor] inside task, before wait
UVM_INFO ../AHB_agt/AHB_monitor.sv(30) @ 265: uvm_test_top.env.AHB_agth[0].monh [AHB_monitor] inside task, after wait
UVM_INFO ../AHB_agt/AHB_driver.sv(19) @ 265: uvm_test_top.env.AHB_agth[0].drvh [AHB_driver] Data in AHB Driver
---------------------------------------------
Name       Type      Size  Value             
---------------------------------------------
req        AHB_xtn   -     @1795             
  HADDR    integral  32    'h0               
  HWRITE   integral  1     'b0               
  HTRANS   integral  2     'b0               
  HSIZE    integral  3     'd0               
  HBURST   integral  3     'd0               
  HWDATA   integral  64    'h0               
  HBUSREQ  integral  1     'b0               
  HLOCK    integral  1     'b0               
  HREADY   integral  1     'b1               
  HRDATA   integral  64    'hc88449a4e5d74b81
  HRESP    integral  1     'b0               
  HGRANT   integral  1     'b0               
  HMASTER  integral  4     'h1               
---------------------------------------------
UVM_INFO ../AHB_agt/AHB_monitor.sv(43) @ 275: uvm_test_top.env.AHB_agth[0].monh [AHB_monitor] inside hwrite monitor, before wait
UVM_INFO ../AHB_agt/AHB_monitor.sv(45) @ 275: uvm_test_top.env.AHB_agth[0].monh [AHB_monitor] inside hwrite monitor, after wait
UVM_INFO ../AHB_agt/AHB_monitor.sv(59) @ 275: uvm_test_top.env.AHB_agth[0].monh [AHB_monitor] Monitor Data: 
 "--------------------------------
Name       Type      Size  Value
--------------------------------
ahb_xtn    AHB_xtn   -     @1928
  HADDR    integral  32    'h7d4
  HWRITE   integral  1     'b1  
  HTRANS   integral  2     'b10 
  HSIZE    integral  3     'd0  
  HBURST   integral  3     'd0  
  HWDATA   integral  64    'h0  
  HBUSREQ  integral  1     'b0  
  HLOCK    integral  1     'b0  
  HREADY   integral  1     'b1  
  HRDATA   integral  64    'h0  
  HRESP    integral  1     'b0  
  HGRANT   integral  1     'b0  
  HMASTER  integral  4     'h0  
--------------------------------
"
UVM_INFO ../AHB_agt/AHB_monitor.sv(28) @ 275: uvm_test_top.env.AHB_agth[0].monh [AHB_monitor] inside task, before wait
UVM_INFO ../AHB_agt/AHB_driver.sv(19) @ 275: uvm_test_top.env.AHB_agth[0].drvh [AHB_driver] Data in AHB Driver
---------------------------------------------
Name       Type      Size  Value             
---------------------------------------------
req        AHB_xtn   -     @1795             
  HADDR    integral  32    'h0               
  HWRITE   integral  1     'b0               
  HTRANS   integral  2     'b0               
  HSIZE    integral  3     'd0               
  HBURST   integral  3     'd0               
  HWDATA   integral  64    'h0               
  HBUSREQ  integral  1     'b0               
  HLOCK    integral  1     'b0               
  HREADY   integral  1     'b0               
  HRDATA   integral  64    'h1d2dec7831977b27
  HRESP    integral  1     'b1               
  HGRANT   integral  1     'b0               
  HMASTER  integral  4     'h8               
---------------------------------------------
UVM_INFO ../AHB_agt/AHB_driver.sv(19) @ 285: uvm_test_top.env.AHB_agth[0].drvh [AHB_driver] Data in AHB Driver
---------------------------------------------
Name       Type      Size  Value             
---------------------------------------------
req        AHB_xtn   -     @1795             
  HADDR    integral  32    'h0               
  HWRITE   integral  1     'b0               
  HTRANS   integral  2     'b0               
  HSIZE    integral  3     'd0               
  HBURST   integral  3     'd0               
  HWDATA   integral  64    'h0               
  HBUSREQ  integral  1     'b0               
  HLOCK    integral  1     'b0               
  HREADY   integral  1     'b1               
  HRDATA   integral  64    'hf2a780c777df7c0c
  HRESP    integral  1     'b1               
  HGRANT   integral  1     'b0               
  HMASTER  integral  4     'h8               
---------------------------------------------
UVM_INFO ../AHB_agt/AHB_driver.sv(19) @ 295: uvm_test_top.env.AHB_agth[0].drvh [AHB_driver] Data in AHB Driver
---------------------------------------------
Name       Type      Size  Value             
---------------------------------------------
req        AHB_xtn   -     @1795             
  HADDR    integral  32    'h0               
  HWRITE   integral  1     'b0               
  HTRANS   integral  2     'b0               
  HSIZE    integral  3     'd0               
  HBURST   integral  3     'd0               
  HWDATA   integral  64    'h0               
  HBUSREQ  integral  1     'b0               
  HLOCK    integral  1     'b0               
  HREADY   integral  1     'b0               
  HRDATA   integral  64    'hd0c19b68500d2b5c
  HRESP    integral  1     'b1               
  HGRANT   integral  1     'b0               
  HMASTER  integral  4     'he               
---------------------------------------------
UVM_INFO ../AHB_agt/AHB_driver.sv(19) @ 305: uvm_test_top.env.AHB_agth[0].drvh [AHB_driver] Data in AHB Driver
---------------------------------------------
Name       Type      Size  Value             
---------------------------------------------
req        AHB_xtn   -     @1795             
  HADDR    integral  32    'h0               
  HWRITE   integral  1     'b0               
  HTRANS   integral  2     'b0               
  HSIZE    integral  3     'd0               
  HBURST   integral  3     'd0               
  HWDATA   integral  64    'h0               
  HBUSREQ  integral  1     'b0               
  HLOCK    integral  1     'b0               
  HREADY   integral  1     'b1               
  HRDATA   integral  64    'hc581c945737baf94
  HRESP    integral  1     'b0               
  HGRANT   integral  1     'b1               
  HMASTER  integral  4     'h5               
---------------------------------------------
UVM_INFO ../AHB_agt/AHB_driver.sv(19) @ 315: uvm_test_top.env.AHB_agth[0].drvh [AHB_driver] Data in AHB Driver
---------------------------------------------
Name       Type      Size  Value             
---------------------------------------------
req        AHB_xtn   -     @1795             
  HADDR    integral  32    'h0               
  HWRITE   integral  1     'b0               
  HTRANS   integral  2     'b0               
  HSIZE    integral  3     'd0               
  HBURST   integral  3     'd0               
  HWDATA   integral  64    'h0               
  HBUSREQ  integral  1     'b0               
  HLOCK    integral  1     'b0               
  HREADY   integral  1     'b0               
  HRDATA   integral  64    'hae136a79b93af08f
  HRESP    integral  1     'b0               
  HGRANT   integral  1     'b0               
  HMASTER  integral  4     'h3               
---------------------------------------------
UVM_INFO ../AHB_agt/AHB_driver.sv(19) @ 325: uvm_test_top.env.AHB_agth[0].drvh [AHB_driver] Data in AHB Driver
---------------------------------------------
Name       Type      Size  Value             
---------------------------------------------
req        AHB_xtn   -     @1795             
  HADDR    integral  32    'h0               
  HWRITE   integral  1     'b0               
  HTRANS   integral  2     'b0               
  HSIZE    integral  3     'd0               
  HBURST   integral  3     'd0               
  HWDATA   integral  64    'h0               
  HBUSREQ  integral  1     'b0               
  HLOCK    integral  1     'b0               
  HREADY   integral  1     'b1               
  HRDATA   integral  64    'h22dd462551f8e534
  HRESP    integral  1     'b0               
  HGRANT   integral  1     'b0               
  HMASTER  integral  4     'h7               
---------------------------------------------
UVM_INFO ../AHB_agt/AHB_driver.sv(19) @ 335: uvm_test_top.env.AHB_agth[0].drvh [AHB_driver] Data in AHB Driver
---------------------------------------------
Name       Type      Size  Value             
---------------------------------------------
req        AHB_xtn   -     @1795             
  HADDR    integral  32    'h0               
  HWRITE   integral  1     'b0               
  HTRANS   integral  2     'b0               
  HSIZE    integral  3     'd0               
  HBURST   integral  3     'd0               
  HWDATA   integral  64    'h0               
  HBUSREQ  integral  1     'b0               
  HLOCK    integral  1     'b0               
  HREADY   integral  1     'b0               
  HRDATA   integral  64    'h706ef3de2491254d
  HRESP    integral  1     'b1               
  HGRANT   integral  1     'b1               
  HMASTER  integral  4     'he               
---------------------------------------------
UVM_INFO ../AHB_agt/AHB_driver.sv(19) @ 345: uvm_test_top.env.AHB_agth[0].drvh [AHB_driver] Data in AHB Driver
---------------------------------------------
Name       Type      Size  Value             
---------------------------------------------
req        AHB_xtn   -     @1795             
  HADDR    integral  32    'h0               
  HWRITE   integral  1     'b0               
  HTRANS   integral  2     'b0               
  HSIZE    integral  3     'd0               
  HBURST   integral  3     'd0               
  HWDATA   integral  64    'h0               
  HBUSREQ  integral  1     'b0               
  HLOCK    integral  1     'b0               
  HREADY   integral  1     'b0               
  HRDATA   integral  64    'h45e02dcef0af9d89
  HRESP    integral  1     'b1               
  HGRANT   integral  1     'b1               
  HMASTER  integral  4     'ha               
---------------------------------------------
UVM_INFO ../AHB_agt/AHB_driver.sv(19) @ 355: uvm_test_top.env.AHB_agth[0].drvh [AHB_driver] Data in AHB Driver
---------------------------------------------
Name       Type      Size  Value             
---------------------------------------------
req        AHB_xtn   -     @1795             
  HADDR    integral  32    'h0               
  HWRITE   integral  1     'b0               
  HTRANS   integral  2     'b0               
  HSIZE    integral  3     'd0               
  HBURST   integral  3     'd0               
  HWDATA   integral  64    'h0               
  HBUSREQ  integral  1     'b0               
  HLOCK    integral  1     'b0               
  HREADY   integral  1     'b1               
  HRDATA   integral  64    'h165a3836e350d530
  HRESP    integral  1     'b0               
  HGRANT   integral  1     'b1               
  HMASTER  integral  4     'h7               
---------------------------------------------
UVM_INFO ../AHB_agt/AHB_driver.sv(19) @ 365: uvm_test_top.env.AHB_agth[0].drvh [AHB_driver] Data in AHB Driver
---------------------------------------------
Name       Type      Size  Value             
---------------------------------------------
req        AHB_xtn   -     @1795             
  HADDR    integral  32    'h0               
  HWRITE   integral  1     'b0               
  HTRANS   integral  2     'b0               
  HSIZE    integral  3     'd0               
  HBURST   integral  3     'd0               
  HWDATA   integral  64    'h0               
  HBUSREQ  integral  1     'b0               
  HLOCK    integral  1     'b0               
  HREADY   integral  1     'b1               
  HRDATA   integral  64    'h9c87cc0bb6da0166
  HRESP    integral  1     'b1               
  HGRANT   integral  1     'b1               
  HMASTER  integral  4     'h4               
---------------------------------------------
UVM_INFO ../AHB_agt/AHB_driver.sv(19) @ 375: uvm_test_top.env.AHB_agth[0].drvh [AHB_driver] Data in AHB Driver
---------------------------------------------
Name       Type      Size  Value             
---------------------------------------------
req        AHB_xtn   -     @1795             
  HADDR    integral  32    'h0               
  HWRITE   integral  1     'b0               
  HTRANS   integral  2     'b0               
  HSIZE    integral  3     'd0               
  HBURST   integral  3     'd0               
  HWDATA   integral  64    'h0               
  HBUSREQ  integral  1     'b0               
  HLOCK    integral  1     'b0               
  HREADY   integral  1     'b1               
  HRDATA   integral  64    'h69e10bf69a9381a4
  HRESP    integral  1     'b0               
  HGRANT   integral  1     'b0               
  HMASTER  integral  4     'h9               
---------------------------------------------
UVM_INFO ../AHB_agt/AHB_driver.sv(19) @ 385: uvm_test_top.env.AHB_agth[0].drvh [AHB_driver] Data in AHB Driver
---------------------------------------------
Name       Type      Size  Value             
---------------------------------------------
req        AHB_xtn   -     @1795             
  HADDR    integral  32    'h0               
  HWRITE   integral  1     'b0               
  HTRANS   integral  2     'b0               
  HSIZE    integral  3     'd0               
  HBURST   integral  3     'd0               
  HWDATA   integral  64    'h0               
  HBUSREQ  integral  1     'b0               
  HLOCK    integral  1     'b0               
  HREADY   integral  1     'b0               
  HRDATA   integral  64    'h66d743c20b83ceb3
  HRESP    integral  1     'b0               
  HGRANT   integral  1     'b1               
  HMASTER  integral  4     'h6               
---------------------------------------------
UVM_INFO ../AHB_agt/AHB_driver.sv(19) @ 395: uvm_test_top.env.AHB_agth[0].drvh [AHB_driver] Data in AHB Driver
---------------------------------------------
Name       Type      Size  Value             
---------------------------------------------
req        AHB_xtn   -     @1795             
  HADDR    integral  32    'h0               
  HWRITE   integral  1     'b0               
  HTRANS   integral  2     'b0               
  HSIZE    integral  3     'd0               
  HBURST   integral  3     'd0               
  HWDATA   integral  64    'h0               
  HBUSREQ  integral  1     'b0               
  HLOCK    integral  1     'b0               
  HREADY   integral  1     'b0               
  HRDATA   integral  64    'h205e5ce0ab18bd67
  HRESP    integral  1     'b1               
  HGRANT   integral  1     'b1               
  HMASTER  integral  4     'ha               
---------------------------------------------
UVM_INFO ../AHB_agt/AHB_driver.sv(19) @ 405: uvm_test_top.env.AHB_agth[0].drvh [AHB_driver] Data in AHB Driver
---------------------------------------------
Name       Type      Size  Value             
---------------------------------------------
req        AHB_xtn   -     @1795             
  HADDR    integral  32    'h0               
  HWRITE   integral  1     'b0               
  HTRANS   integral  2     'b0               
  HSIZE    integral  3     'd0               
  HBURST   integral  3     'd0               
  HWDATA   integral  64    'h0               
  HBUSREQ  integral  1     'b0               
  HLOCK    integral  1     'b0               
  HREADY   integral  1     'b0               
  HRDATA   integral  64    'ha22d5f7de6ca2335
  HRESP    integral  1     'b0               
  HGRANT   integral  1     'b0               
  HMASTER  integral  4     'hc               
---------------------------------------------
UVM_INFO ../AHB_agt/AHB_driver.sv(19) @ 415: uvm_test_top.env.AHB_agth[0].drvh [AHB_driver] Data in AHB Driver
--------------------------------------------
Name       Type      Size  Value            
--------------------------------------------
req        AHB_xtn   -     @1795            
  HADDR    integral  32    'h0              
  HWRITE   integral  1     'b0              
  HTRANS   integral  2     'b0              
  HSIZE    integral  3     'd0              
  HBURST   integral  3     'd0              
  HWDATA   integral  64    'h0              
  HBUSREQ  integral  1     'b0              
  HLOCK    integral  1     'b0              
  HREADY   integral  1     'b1              
  HRDATA   integral  64    'he1561f9c7075802
  HRESP    integral  1     'b0              
  HGRANT   integral  1     'b0              
  HMASTER  integral  4     'h1              
--------------------------------------------
UVM_INFO ../AHB_agt/AHB_driver.sv(19) @ 425: uvm_test_top.env.AHB_agth[0].drvh [AHB_driver] Data in AHB Driver
---------------------------------------------
Name       Type      Size  Value             
---------------------------------------------
req        AHB_xtn   -     @1795             
  HADDR    integral  32    'h0               
  HWRITE   integral  1     'b0               
  HTRANS   integral  2     'b0               
  HSIZE    integral  3     'd0               
  HBURST   integral  3     'd0               
  HWDATA   integral  64    'h0               
  HBUSREQ  integral  1     'b0               
  HLOCK    integral  1     'b0               
  HREADY   integral  1     'b1               
  HRDATA   integral  64    'h3c9e4e4a3cbd673a
  HRESP    integral  1     'b1               
  HGRANT   integral  1     'b0               
  HMASTER  integral  4     'h6               
---------------------------------------------
UVM_INFO ../AHB_agt/AHB_driver.sv(19) @ 435: uvm_test_top.env.AHB_agth[0].drvh [AHB_driver] Data in AHB Driver
---------------------------------------------
Name       Type      Size  Value             
---------------------------------------------
req        AHB_xtn   -     @1795             
  HADDR    integral  32    'h0               
  HWRITE   integral  1     'b0               
  HTRANS   integral  2     'b0               
  HSIZE    integral  3     'd0               
  HBURST   integral  3     'd0               
  HWDATA   integral  64    'h0               
  HBUSREQ  integral  1     'b0               
  HLOCK    integral  1     'b0               
  HREADY   integral  1     'b1               
  HRDATA   integral  64    'hc52168c7ed613d89
  HRESP    integral  1     'b0               
  HGRANT   integral  1     'b0               
  HMASTER  integral  4     'hd               
---------------------------------------------
UVM_INFO ../AHB_agt/AHB_driver.sv(19) @ 445: uvm_test_top.env.AHB_agth[0].drvh [AHB_driver] Data in AHB Driver
---------------------------------------------
Name       Type      Size  Value             
---------------------------------------------
req        AHB_xtn   -     @1795             
  HADDR    integral  32    'h0               
  HWRITE   integral  1     'b0               
  HTRANS   integral  2     'b0               
  HSIZE    integral  3     'd0               
  HBURST   integral  3     'd0               
  HWDATA   integral  64    'h0               
  HBUSREQ  integral  1     'b0               
  HLOCK    integral  1     'b0               
  HREADY   integral  1     'b0               
  HRDATA   integral  64    'hafe48a3be29d746c
  HRESP    integral  1     'b0               
  HGRANT   integral  1     'b1               
  HMASTER  integral  4     'hd               
---------------------------------------------
UVM_INFO ../AHB_agt/AHB_driver.sv(19) @ 455: uvm_test_top.env.AHB_agth[0].drvh [AHB_driver] Data in AHB Driver
---------------------------------------------
Name       Type      Size  Value             
---------------------------------------------
req        AHB_xtn   -     @1795             
  HADDR    integral  32    'h0               
  HWRITE   integral  1     'b0               
  HTRANS   integral  2     'b0               
  HSIZE    integral  3     'd0               
  HBURST   integral  3     'd0               
  HWDATA   integral  64    'h0               
  HBUSREQ  integral  1     'b0               
  HLOCK    integral  1     'b0               
  HREADY   integral  1     'b1               
  HRDATA   integral  64    'hf0a61b6d99a891c5
  HRESP    integral  1     'b0               
  HGRANT   integral  1     'b1               
  HMASTER  integral  4     'h7               
---------------------------------------------
UVM_INFO ../AHB_agt/AHB_driver.sv(19) @ 465: uvm_test_top.env.AHB_agth[0].drvh [AHB_driver] Data in AHB Driver
---------------------------------------------
Name       Type      Size  Value             
---------------------------------------------
req        AHB_xtn   -     @1795             
  HADDR    integral  32    'h0               
  HWRITE   integral  1     'b0               
  HTRANS   integral  2     'b0               
  HSIZE    integral  3     'd0               
  HBURST   integral  3     'd0               
  HWDATA   integral  64    'h0               
  HBUSREQ  integral  1     'b0               
  HLOCK    integral  1     'b0               
  HREADY   integral  1     'b1               
  HRDATA   integral  64    'hf718c7ffa80d5c54
  HRESP    integral  1     'b0               
  HGRANT   integral  1     'b0               
  HMASTER  integral  4     'h7               
---------------------------------------------
UVM_INFO ../AHB_agt/AHB_driver.sv(19) @ 475: uvm_test_top.env.AHB_agth[0].drvh [AHB_driver] Data in AHB Driver
---------------------------------------------
Name       Type      Size  Value             
---------------------------------------------
req        AHB_xtn   -     @1795             
  HADDR    integral  32    'h0               
  HWRITE   integral  1     'b0               
  HTRANS   integral  2     'b0               
  HSIZE    integral  3     'd0               
  HBURST   integral  3     'd0               
  HWDATA   integral  64    'h0               
  HBUSREQ  integral  1     'b0               
  HLOCK    integral  1     'b0               
  HREADY   integral  1     'b0               
  HRDATA   integral  64    'h3042f2a3cede4a7c
  HRESP    integral  1     'b1               
  HGRANT   integral  1     'b1               
  HMASTER  integral  4     'h8               
---------------------------------------------
UVM_INFO ../AHB_agt/AHB_driver.sv(19) @ 485: uvm_test_top.env.AHB_agth[0].drvh [AHB_driver] Data in AHB Driver
---------------------------------------------
Name       Type      Size  Value             
---------------------------------------------
req        AHB_xtn   -     @1795             
  HADDR    integral  32    'h0               
  HWRITE   integral  1     'b0               
  HTRANS   integral  2     'b0               
  HSIZE    integral  3     'd0               
  HBURST   integral  3     'd0               
  HWDATA   integral  64    'h0               
  HBUSREQ  integral  1     'b0               
  HLOCK    integral  1     'b0               
  HREADY   integral  1     'b0               
  HRDATA   integral  64    'h3b065ff3ada9753a
  HRESP    integral  1     'b0               
  HGRANT   integral  1     'b0               
  HMASTER  integral  4     'hf               
---------------------------------------------
UVM_INFO ../AHB_agt/AHB_driver.sv(19) @ 495: uvm_test_top.env.AHB_agth[0].drvh [AHB_driver] Data in AHB Driver
---------------------------------------------
Name       Type      Size  Value             
---------------------------------------------
req        AHB_xtn   -     @1795             
  HADDR    integral  32    'h0               
  HWRITE   integral  1     'b0               
  HTRANS   integral  2     'b0               
  HSIZE    integral  3     'd0               
  HBURST   integral  3     'd0               
  HWDATA   integral  64    'h0               
  HBUSREQ  integral  1     'b0               
  HLOCK    integral  1     'b0               
  HREADY   integral  1     'b1               
  HRDATA   integral  64    'hfac5042d1d415b2e
  HRESP    integral  1     'b0               
  HGRANT   integral  1     'b0               
  HMASTER  integral  4     'h4               
---------------------------------------------
UVM_INFO ../AHB_agt/AHB_driver.sv(19) @ 505: uvm_test_top.env.AHB_agth[0].drvh [AHB_driver] Data in AHB Driver
---------------------------------------------
Name       Type      Size  Value             
---------------------------------------------
req        AHB_xtn   -     @1795             
  HADDR    integral  32    'h0               
  HWRITE   integral  1     'b0               
  HTRANS   integral  2     'b0               
  HSIZE    integral  3     'd0               
  HBURST   integral  3     'd0               
  HWDATA   integral  64    'h0               
  HBUSREQ  integral  1     'b0               
  HLOCK    integral  1     'b0               
  HREADY   integral  1     'b1               
  HRDATA   integral  64    'h8347cd0e6c6cc3ba
  HRESP    integral  1     'b1               
  HGRANT   integral  1     'b0               
  HMASTER  integral  4     'h8               
---------------------------------------------
UVM_INFO ../AHB_agt/AHB_driver.sv(19) @ 515: uvm_test_top.env.AHB_agth[0].drvh [AHB_driver] Data in AHB Driver
--------------------------------------------
Name       Type      Size  Value            
--------------------------------------------
req        AHB_xtn   -     @1795            
  HADDR    integral  32    'h0              
  HWRITE   integral  1     'b0              
  HTRANS   integral  2     'b0              
  HSIZE    integral  3     'd0              
  HBURST   integral  3     'd0              
  HWDATA   integral  64    'h0              
  HBUSREQ  integral  1     'b0              
  HLOCK    integral  1     'b0              
  HREADY   integral  1     'b1              
  HRDATA   integral  64    'h95494a474f0af90
  HRESP    integral  1     'b0              
  HGRANT   integral  1     'b1              
  HMASTER  integral  4     'h7              
--------------------------------------------
UVM_INFO ../AHB_agt/AHB_driver.sv(19) @ 525: uvm_test_top.env.AHB_agth[0].drvh [AHB_driver] Data in AHB Driver
---------------------------------------------
Name       Type      Size  Value             
---------------------------------------------
req        AHB_xtn   -     @1795             
  HADDR    integral  32    'h0               
  HWRITE   integral  1     'b0               
  HTRANS   integral  2     'b0               
  HSIZE    integral  3     'd0               
  HBURST   integral  3     'd0               
  HWDATA   integral  64    'h0               
  HBUSREQ  integral  1     'b0               
  HLOCK    integral  1     'b0               
  HREADY   integral  1     'b1               
  HRDATA   integral  64    'h31a878efef7b0e1e
  HRESP    integral  1     'b1               
  HGRANT   integral  1     'b0               
  HMASTER  integral  4     'hd               
---------------------------------------------
UVM_INFO ../AHB_agt/AHB_driver.sv(19) @ 535: uvm_test_top.env.AHB_agth[0].drvh [AHB_driver] Data in AHB Driver
---------------------------------------------
Name       Type      Size  Value             
---------------------------------------------
req        AHB_xtn   -     @1795             
  HADDR    integral  32    'h0               
  HWRITE   integral  1     'b0               
  HTRANS   integral  2     'b0               
  HSIZE    integral  3     'd0               
  HBURST   integral  3     'd0               
  HWDATA   integral  64    'h0               
  HBUSREQ  integral  1     'b0               
  HLOCK    integral  1     'b0               
  HREADY   integral  1     'b0               
  HRDATA   integral  64    'he158ac7a65f49bbe
  HRESP    integral  1     'b0               
  HGRANT   integral  1     'b1               
  HMASTER  integral  4     'hb               
---------------------------------------------
UVM_INFO ../AHB_agt/AHB_driver.sv(19) @ 545: uvm_test_top.env.AHB_agth[0].drvh [AHB_driver] Data in AHB Driver
---------------------------------------------
Name       Type      Size  Value             
---------------------------------------------
req        AHB_xtn   -     @1795             
  HADDR    integral  32    'h0               
  HWRITE   integral  1     'b0               
  HTRANS   integral  2     'b0               
  HSIZE    integral  3     'd0               
  HBURST   integral  3     'd0               
  HWDATA   integral  64    'h0               
  HBUSREQ  integral  1     'b0               
  HLOCK    integral  1     'b0               
  HREADY   integral  1     'b0               
  HRDATA   integral  64    'h1eea2029cfd82cc4
  HRESP    integral  1     'b1               
  HGRANT   integral  1     'b0               
  HMASTER  integral  4     'hf               
---------------------------------------------
UVM_INFO ../AHB_agt/AHB_driver.sv(19) @ 555: uvm_test_top.env.AHB_agth[0].drvh [AHB_driver] Data in AHB Driver
---------------------------------------------
Name       Type      Size  Value             
---------------------------------------------
req        AHB_xtn   -     @1795             
  HADDR    integral  32    'h0               
  HWRITE   integral  1     'b0               
  HTRANS   integral  2     'b0               
  HSIZE    integral  3     'd0               
  HBURST   integral  3     'd0               
  HWDATA   integral  64    'h0               
  HBUSREQ  integral  1     'b0               
  HLOCK    integral  1     'b0               
  HREADY   integral  1     'b1               
  HRDATA   integral  64    'h7a604a98c3783b90
  HRESP    integral  1     'b1               
  HGRANT   integral  1     'b1               
  HMASTER  integral  4     'hb               
---------------------------------------------
UVM_INFO ../AHB_agt/AHB_driver.sv(19) @ 565: uvm_test_top.env.AHB_agth[0].drvh [AHB_driver] Data in AHB Driver
---------------------------------------------
Name       Type      Size  Value             
---------------------------------------------
req        AHB_xtn   -     @1795             
  HADDR    integral  32    'h0               
  HWRITE   integral  1     'b0               
  HTRANS   integral  2     'b0               
  HSIZE    integral  3     'd0               
  HBURST   integral  3     'd0               
  HWDATA   integral  64    'h0               
  HBUSREQ  integral  1     'b0               
  HLOCK    integral  1     'b0               
  HREADY   integral  1     'b0               
  HRDATA   integral  64    'hc7eb212b2da39c0a
  HRESP    integral  1     'b0               
  HGRANT   integral  1     'b0               
  HMASTER  integral  4     'h2               
---------------------------------------------
UVM_INFO ../AHB_agt/AHB_driver.sv(19) @ 575: uvm_test_top.env.AHB_agth[0].drvh [AHB_driver] Data in AHB Driver
---------------------------------------------
Name       Type      Size  Value             
---------------------------------------------
req        AHB_xtn   -     @1795             
  HADDR    integral  32    'h0               
  HWRITE   integral  1     'b0               
  HTRANS   integral  2     'b0               
  HSIZE    integral  3     'd0               
  HBURST   integral  3     'd0               
  HWDATA   integral  64    'h0               
  HBUSREQ  integral  1     'b0               
  HLOCK    integral  1     'b0               
  HREADY   integral  1     'b1               
  HRDATA   integral  64    'hde61a72d165a942c
  HRESP    integral  1     'b0               
  HGRANT   integral  1     'b1               
  HMASTER  integral  4     'h9               
---------------------------------------------
UVM_INFO ../AHB_agt/AHB_driver.sv(19) @ 585: uvm_test_top.env.AHB_agth[0].drvh [AHB_driver] Data in AHB Driver
---------------------------------------------
Name       Type      Size  Value             
---------------------------------------------
req        AHB_xtn   -     @1795             
  HADDR    integral  32    'h0               
  HWRITE   integral  1     'b0               
  HTRANS   integral  2     'b0               
  HSIZE    integral  3     'd0               
  HBURST   integral  3     'd0               
  HWDATA   integral  64    'h0               
  HBUSREQ  integral  1     'b0               
  HLOCK    integral  1     'b0               
  HREADY   integral  1     'b0               
  HRDATA   integral  64    'h8add6518b3f41fbe
  HRESP    integral  1     'b0               
  HGRANT   integral  1     'b1               
  HMASTER  integral  4     'h6               
---------------------------------------------
UVM_INFO ../AHB_agt/AHB_driver.sv(19) @ 595: uvm_test_top.env.AHB_agth[0].drvh [AHB_driver] Data in AHB Driver
---------------------------------------------
Name       Type      Size  Value             
---------------------------------------------
req        AHB_xtn   -     @1795             
  HADDR    integral  32    'h0               
  HWRITE   integral  1     'b0               
  HTRANS   integral  2     'b0               
  HSIZE    integral  3     'd0               
  HBURST   integral  3     'd0               
  HWDATA   integral  64    'h0               
  HBUSREQ  integral  1     'b0               
  HLOCK    integral  1     'b0               
  HREADY   integral  1     'b1               
  HRDATA   integral  64    'hc7bc8d9453660188
  HRESP    integral  1     'b0               
  HGRANT   integral  1     'b1               
  HMASTER  integral  4     'hc               
---------------------------------------------
UVM_INFO ../AHB_agt/AHB_driver.sv(19) @ 605: uvm_test_top.env.AHB_agth[0].drvh [AHB_driver] Data in AHB Driver
---------------------------------------------
Name       Type      Size  Value             
---------------------------------------------
req        AHB_xtn   -     @1795             
  HADDR    integral  32    'h0               
  HWRITE   integral  1     'b0               
  HTRANS   integral  2     'b0               
  HSIZE    integral  3     'd0               
  HBURST   integral  3     'd0               
  HWDATA   integral  64    'h0               
  HBUSREQ  integral  1     'b0               
  HLOCK    integral  1     'b0               
  HREADY   integral  1     'b0               
  HRDATA   integral  64    'hdf780b0531d2e431
  HRESP    integral  1     'b0               
  HGRANT   integral  1     'b0               
  HMASTER  integral  4     'h2               
---------------------------------------------
UVM_INFO ../AHB_agt/AHB_driver.sv(19) @ 615: uvm_test_top.env.AHB_agth[0].drvh [AHB_driver] Data in AHB Driver
---------------------------------------------
Name       Type      Size  Value             
---------------------------------------------
req        AHB_xtn   -     @1795             
  HADDR    integral  32    'h0               
  HWRITE   integral  1     'b0               
  HTRANS   integral  2     'b0               
  HSIZE    integral  3     'd0               
  HBURST   integral  3     'd0               
  HWDATA   integral  64    'h0               
  HBUSREQ  integral  1     'b0               
  HLOCK    integral  1     'b0               
  HREADY   integral  1     'b1               
  HRDATA   integral  64    'hb45c9c90ea859918
  HRESP    integral  1     'b0               
  HGRANT   integral  1     'b0               
  HMASTER  integral  4     'h4               
---------------------------------------------
UVM_INFO ../AHB_agt/AHB_driver.sv(19) @ 625: uvm_test_top.env.AHB_agth[0].drvh [AHB_driver] Data in AHB Driver
---------------------------------------------
Name       Type      Size  Value             
---------------------------------------------
req        AHB_xtn   -     @1795             
  HADDR    integral  32    'h0               
  HWRITE   integral  1     'b0               
  HTRANS   integral  2     'b0               
  HSIZE    integral  3     'd0               
  HBURST   integral  3     'd0               
  HWDATA   integral  64    'h0               
  HBUSREQ  integral  1     'b0               
  HLOCK    integral  1     'b0               
  HREADY   integral  1     'b1               
  HRDATA   integral  64    'hd9c035733eca1fe0
  HRESP    integral  1     'b0               
  HGRANT   integral  1     'b0               
  HMASTER  integral  4     'hd               
---------------------------------------------
UVM_INFO ../AHB_agt/AHB_driver.sv(19) @ 635: uvm_test_top.env.AHB_agth[0].drvh [AHB_driver] Data in AHB Driver
---------------------------------------------
Name       Type      Size  Value             
---------------------------------------------
req        AHB_xtn   -     @1795             
  HADDR    integral  32    'h0               
  HWRITE   integral  1     'b0               
  HTRANS   integral  2     'b0               
  HSIZE    integral  3     'd0               
  HBURST   integral  3     'd0               
  HWDATA   integral  64    'h0               
  HBUSREQ  integral  1     'b0               
  HLOCK    integral  1     'b0               
  HREADY   integral  1     'b0               
  HRDATA   integral  64    'hbd439de041095d9c
  HRESP    integral  1     'b0               
  HGRANT   integral  1     'b0               
  HMASTER  integral  4     'hd               
---------------------------------------------
UVM_INFO ../AHB_agt/AHB_driver.sv(19) @ 645: uvm_test_top.env.AHB_agth[0].drvh [AHB_driver] Data in AHB Driver
---------------------------------------------
Name       Type      Size  Value             
---------------------------------------------
req        AHB_xtn   -     @1795             
  HADDR    integral  32    'h0               
  HWRITE   integral  1     'b0               
  HTRANS   integral  2     'b0               
  HSIZE    integral  3     'd0               
  HBURST   integral  3     'd0               
  HWDATA   integral  64    'h0               
  HBUSREQ  integral  1     'b0               
  HLOCK    integral  1     'b0               
  HREADY   integral  1     'b0               
  HRDATA   integral  64    'he5bf42e45d2750fe
  HRESP    integral  1     'b1               
  HGRANT   integral  1     'b1               
  HMASTER  integral  4     'h3               
---------------------------------------------
UVM_INFO ../AHB_agt/AHB_driver.sv(19) @ 655: uvm_test_top.env.AHB_agth[0].drvh [AHB_driver] Data in AHB Driver
---------------------------------------------
Name       Type      Size  Value             
---------------------------------------------
req        AHB_xtn   -     @1795             
  HADDR    integral  32    'h0               
  HWRITE   integral  1     'b0               
  HTRANS   integral  2     'b0               
  HSIZE    integral  3     'd0               
  HBURST   integral  3     'd0               
  HWDATA   integral  64    'h0               
  HBUSREQ  integral  1     'b0               
  HLOCK    integral  1     'b0               
  HREADY   integral  1     'b0               
  HRDATA   integral  64    'hfe0b7870cc4a09c7
  HRESP    integral  1     'b0               
  HGRANT   integral  1     'b0               
  HMASTER  integral  4     'h9               
---------------------------------------------
UVM_INFO ../AHB_agt/AHB_driver.sv(19) @ 665: uvm_test_top.env.AHB_agth[0].drvh [AHB_driver] Data in AHB Driver
---------------------------------------------
Name       Type      Size  Value             
---------------------------------------------
req        AHB_xtn   -     @1795             
  HADDR    integral  32    'h0               
  HWRITE   integral  1     'b0               
  HTRANS   integral  2     'b0               
  HSIZE    integral  3     'd0               
  HBURST   integral  3     'd0               
  HWDATA   integral  64    'h0               
  HBUSREQ  integral  1     'b0               
  HLOCK    integral  1     'b0               
  HREADY   integral  1     'b0               
  HRDATA   integral  64    'h74d3f75dbf92c8bd
  HRESP    integral  1     'b1               
  HGRANT   integral  1     'b1               
  HMASTER  integral  4     'hc               
---------------------------------------------
UVM_INFO ../AHB_agt/AHB_driver.sv(19) @ 675: uvm_test_top.env.AHB_agth[0].drvh [AHB_driver] Data in AHB Driver
---------------------------------------------
Name       Type      Size  Value             
---------------------------------------------
req        AHB_xtn   -     @1795             
  HADDR    integral  32    'h0               
  HWRITE   integral  1     'b0               
  HTRANS   integral  2     'b0               
  HSIZE    integral  3     'd0               
  HBURST   integral  3     'd0               
  HWDATA   integral  64    'h0               
  HBUSREQ  integral  1     'b0               
  HLOCK    integral  1     'b0               
  HREADY   integral  1     'b0               
  HRDATA   integral  64    'hde54ffcb9bf99801
  HRESP    integral  1     'b0               
  HGRANT   integral  1     'b1               
  HMASTER  integral  4     'ha               
---------------------------------------------
UVM_INFO ../AHB_agt/AHB_driver.sv(19) @ 685: uvm_test_top.env.AHB_agth[0].drvh [AHB_driver] Data in AHB Driver
---------------------------------------------
Name       Type      Size  Value             
---------------------------------------------
req        AHB_xtn   -     @1795             
  HADDR    integral  32    'h0               
  HWRITE   integral  1     'b0               
  HTRANS   integral  2     'b0               
  HSIZE    integral  3     'd0               
  HBURST   integral  3     'd0               
  HWDATA   integral  64    'h0               
  HBUSREQ  integral  1     'b0               
  HLOCK    integral  1     'b0               
  HREADY   integral  1     'b0               
  HRDATA   integral  64    'h92e5ba96c96bb299
  HRESP    integral  1     'b0               
  HGRANT   integral  1     'b0               
  HMASTER  integral  4     'hd               
---------------------------------------------
UVM_INFO ../AHB_agt/AHB_driver.sv(19) @ 695: uvm_test_top.env.AHB_agth[0].drvh [AHB_driver] Data in AHB Driver
---------------------------------------------
Name       Type      Size  Value             
---------------------------------------------
req        AHB_xtn   -     @1795             
  HADDR    integral  32    'h0               
  HWRITE   integral  1     'b0               
  HTRANS   integral  2     'b0               
  HSIZE    integral  3     'd0               
  HBURST   integral  3     'd0               
  HWDATA   integral  64    'h0               
  HBUSREQ  integral  1     'b0               
  HLOCK    integral  1     'b0               
  HREADY   integral  1     'b0               
  HRDATA   integral  64    'hf600be596b81d780
  HRESP    integral  1     'b0               
  HGRANT   integral  1     'b0               
  HMASTER  integral  4     'hd               
---------------------------------------------
UVM_INFO ../AHB_agt/AHB_driver.sv(19) @ 705: uvm_test_top.env.AHB_agth[0].drvh [AHB_driver] Data in AHB Driver
---------------------------------------------
Name       Type      Size  Value             
---------------------------------------------
req        AHB_xtn   -     @1795             
  HADDR    integral  32    'h0               
  HWRITE   integral  1     'b0               
  HTRANS   integral  2     'b0               
  HSIZE    integral  3     'd0               
  HBURST   integral  3     'd0               
  HWDATA   integral  64    'h0               
  HBUSREQ  integral  1     'b0               
  HLOCK    integral  1     'b0               
  HREADY   integral  1     'b0               
  HRDATA   integral  64    'h8c559160fb82ec37
  HRESP    integral  1     'b0               
  HGRANT   integral  1     'b0               
  HMASTER  integral  4     'h2               
---------------------------------------------
UVM_INFO ../AHB_agt/AHB_driver.sv(19) @ 715: uvm_test_top.env.AHB_agth[0].drvh [AHB_driver] Data in AHB Driver
---------------------------------------------
Name       Type      Size  Value             
---------------------------------------------
req        AHB_xtn   -     @1795             
  HADDR    integral  32    'h0               
  HWRITE   integral  1     'b0               
  HTRANS   integral  2     'b0               
  HSIZE    integral  3     'd0               
  HBURST   integral  3     'd0               
  HWDATA   integral  64    'h0               
  HBUSREQ  integral  1     'b0               
  HLOCK    integral  1     'b0               
  HREADY   integral  1     'b0               
  HRDATA   integral  64    'h233453821ad90dff
  HRESP    integral  1     'b1               
  HGRANT   integral  1     'b1               
  HMASTER  integral  4     'h7               
---------------------------------------------
UVM_INFO ../AHB_agt/AHB_driver.sv(19) @ 725: uvm_test_top.env.AHB_agth[0].drvh [AHB_driver] Data in AHB Driver
---------------------------------------------
Name       Type      Size  Value             
---------------------------------------------
req        AHB_xtn   -     @1795             
  HADDR    integral  32    'h0               
  HWRITE   integral  1     'b0               
  HTRANS   integral  2     'b0               
  HSIZE    integral  3     'd0               
  HBURST   integral  3     'd0               
  HWDATA   integral  64    'h0               
  HBUSREQ  integral  1     'b0               
  HLOCK    integral  1     'b0               
  HREADY   integral  1     'b0               
  HRDATA   integral  64    'hef6dc7250b60939c
  HRESP    integral  1     'b0               
  HGRANT   integral  1     'b0               
  HMASTER  integral  4     'h9               
---------------------------------------------
UVM_INFO ../AHB_agt/AHB_driver.sv(19) @ 735: uvm_test_top.env.AHB_agth[0].drvh [AHB_driver] Data in AHB Driver
---------------------------------------------
Name       Type      Size  Value             
---------------------------------------------
req        AHB_xtn   -     @1795             
  HADDR    integral  32    'h0               
  HWRITE   integral  1     'b0               
  HTRANS   integral  2     'b0               
  HSIZE    integral  3     'd0               
  HBURST   integral  3     'd0               
  HWDATA   integral  64    'h0               
  HBUSREQ  integral  1     'b0               
  HLOCK    integral  1     'b0               
  HREADY   integral  1     'b0               
  HRDATA   integral  64    'h4ee97db71efcd332
  HRESP    integral  1     'b0               
  HGRANT   integral  1     'b1               
  HMASTER  integral  4     'hc               
---------------------------------------------
UVM_INFO ../AHB_agt/AHB_driver.sv(19) @ 745: uvm_test_top.env.AHB_agth[0].drvh [AHB_driver] Data in AHB Driver
---------------------------------------------
Name       Type      Size  Value             
---------------------------------------------
req        AHB_xtn   -     @1795             
  HADDR    integral  32    'h0               
  HWRITE   integral  1     'b0               
  HTRANS   integral  2     'b0               
  HSIZE    integral  3     'd0               
  HBURST   integral  3     'd0               
  HWDATA   integral  64    'h0               
  HBUSREQ  integral  1     'b0               
  HLOCK    integral  1     'b0               
  HREADY   integral  1     'b0               
  HRDATA   integral  64    'h545a741e671c2d97
  HRESP    integral  1     'b1               
