Command: /home2/B126/AKSSolomon/VLSI_RN_OFFLINE/AXI2AHB_Bridge/sim/./simv -l ahbnormaltest.log +UVM_TESTNAME=AHB_normal_test +fsdbfile+axiahb.fsdb +ntb_random_seed_automatic -cm_dir ./ahbnormal_data
Chronologic VCS simulator copyright 1991-2025
Contains Synopsys proprietary information.
Compiler version X-2025.06_Full64; Runtime version X-2025.06_Full64;  Aug  1 18:15 2026
NOTE: automatic random seed used: 3582241151
----------------------------------------------------------------
UVM-1.1d.Synopsys
(C) 2007-2013 Mentor Graphics Corporation
(C) 2007-2013 Cadence Design Systems, Inc.
(C) 2006-2013 Synopsys, Inc.
(C) 2011-2013 Cypress Semiconductor Corp.
----------------------------------------------------------------

  ***********       IMPORTANT RELEASE NOTES         ************

  You are using a version of the UVM library that has been compiled
  with `UVM_NO_DEPRECATED undefined.
  See http://www.eda.org/svdb/view.php?id=3313 for more details.

  You are using a version of the UVM library that has been compiled
  with `UVM_OBJECT_MUST_HAVE_CONSTRUCTOR undefined.
  See http://www.eda.org/svdb/view.php?id=3770 for more details.

      (Specify +UVM_NO_RELNOTES to turn off this notice)

UVM_INFO @ 0: reporter [RNTST] Running test AHB_normal_test...
*Verdi* Loading libsscore_vcs202506.so
FSDB Dumper for VCS, Release Verdi_X-2025.06, Linux x86_64/64bit, 05/31/2025
(C) 1996 - 2025 by Synopsys, Inc.
*Verdi* WARNING: Env/runtime option has specified fsdbfile name as "axiahb.fsdb". Fsdbfile name in task "wave.fsdb" is ignored.
*Verdi* FSDB WARNING: The FSDB file already exists. Overwriting the FSDB file may crash the programs that are using this file.
*Verdi* : Create FSDB file 'axiahb.fsdb'
*Verdi* : Begin traversing the scope (top), layer (0).
*Verdi* : End of traversing.
UVM_INFO @ 0: reporter [UVMTOP] UVM testbench topology:
-------------------------------------------------------------------
Name                        Type                        Size  Value
-------------------------------------------------------------------
uvm_test_top                AHB_normal_test             -     @483 
  env                       env                         -     @500 
    AHB_agth[0]             AHB_agent                   -     @870 
      drvh                  AHB_driver                  -     @918 
        rsp_port            uvm_analysis_port           -     @935 
        seq_item_port       uvm_seq_item_pull_port      -     @926 
      monh                  AHB_monitor                 -     @898 
        AHB_mon_port        uvm_analysis_port           -     @906 
      seqrh                 AHB_sequencer               -     @944 
        rsp_export          uvm_analysis_export         -     @952 
        seq_item_export     uvm_seq_item_pull_imp       -     @1058
        arbitration_queue   array                       0     -    
        lock_queue          array                       0     -    
        num_last_reqs       integral                    32    'd1  
        num_last_rsps       integral                    32    'd1  
    AHB_rst_agth[0]         AHB_rst_agent               -     @885 
      drvh                  AHB_rst_driver              -     @1098
        rsp_port            uvm_analysis_port           -     @1115
        seq_item_port       uvm_seq_item_pull_port      -     @1106
      monh                  AHB_rst_monitor             -     @1079
        AHB_rst_mon_port    uvm_analysis_port           -     @1087
      seqrh                 AHB_rst_sequencer           -     @1124
        rsp_export          uvm_analysis_export         -     @1132
        seq_item_export     uvm_seq_item_pull_imp       -     @1238
        arbitration_queue   array                       0     -    
        lock_queue          array                       0     -    
        num_last_reqs       integral                    32    'd1  
        num_last_rsps       integral                    32    'd1  
    AXI_agth[0]             AXI_agent                   -     @841 
      drvh                  AXI_driver                  -     @1299
        rsp_port            uvm_analysis_port           -     @1316
        seq_item_port       uvm_seq_item_pull_port      -     @1307
      monh                  AXI_monitor                 -     @1263
        AXI_mon_port        uvm_analysis_port           -     @1271
        AXI_rdata_mon_port  uvm_analysis_port           -     @1289
        AXI_wdata_mon_port  uvm_analysis_port           -     @1280
      seqrh                 AXI_sequencer               -     @1325
        rsp_export          uvm_analysis_export         -     @1333
        seq_item_export     uvm_seq_item_pull_imp       -     @1439
        arbitration_queue   array                       0     -    
        lock_queue          array                       0     -    
        num_last_reqs       integral                    32    'd1  
        num_last_rsps       integral                    32    'd1  
    AXI_rst_agth[0]         AXI_rst_agent               -     @856 
      drvh                  AXI_rst_driver              -     @1478
        rsp_port            uvm_analysis_port           -     @1495
        seq_item_port       uvm_seq_item_pull_port      -     @1486
      monh                  AXI_rst_monitor             -     @1460
        AXI_rst_mon_port    uvm_analysis_port           -     @1468
      seqrh                 AXI_rst_sequencer           -     @1504
        rsp_export          uvm_analysis_export         -     @1512
        seq_item_export     uvm_seq_item_pull_imp       -     @1618
        arbitration_queue   array                       0     -    
        lock_queue          array                       0     -    
        num_last_reqs       integral                    32    'd1  
        num_last_rsps       integral                    32    'd1  
    sbh[0]                  scoreboard                  -     @509 
      AHB_fifoh             uvm_tlm_analysis_fifo #(T)  -     @623 
        analysis_export     uvm_analysis_imp            -     @667 
        get_ap              uvm_analysis_port           -     @658 
        get_peek_export     uvm_get_peek_imp            -     @640 
        put_ap              uvm_analysis_port           -     @649 
        put_export          uvm_put_imp                 -     @631 
      AHB_rst_fifoh         uvm_tlm_analysis_fifo #(T)  -     @676 
        analysis_export     uvm_analysis_imp            -     @720 
        get_ap              uvm_analysis_port           -     @711 
        get_peek_export     uvm_get_peek_imp            -     @693 
        put_ap              uvm_analysis_port           -     @702 
        put_export          uvm_put_imp                 -     @684 
      AXI_fifoh             uvm_tlm_analysis_fifo #(T)  -     @517 
        analysis_export     uvm_analysis_imp            -     @561 
        get_ap              uvm_analysis_port           -     @552 
        get_peek_export     uvm_get_peek_imp            -     @534 
        put_ap              uvm_analysis_port           -     @543 
        put_export          uvm_put_imp                 -     @525 
      AXI_rdata_fifoh       uvm_tlm_analysis_fifo #(T)  -     @782 
        analysis_export     uvm_analysis_imp            -     @826 
        get_ap              uvm_analysis_port           -     @817 
        get_peek_export     uvm_get_peek_imp            -     @799 
        put_ap              uvm_analysis_port           -     @808 
        put_export          uvm_put_imp                 -     @790 
      AXI_rst_fifoh         uvm_tlm_analysis_fifo #(T)  -     @570 
        analysis_export     uvm_analysis_imp            -     @614 
        get_ap              uvm_analysis_port           -     @605 
        get_peek_export     uvm_get_peek_imp            -     @587 
        put_ap              uvm_analysis_port           -     @596 
        put_export          uvm_put_imp                 -     @578 
      AXI_wdata_fifoh       uvm_tlm_analysis_fifo #(T)  -     @729 
        analysis_export     uvm_analysis_imp            -     @773 
        get_ap              uvm_analysis_port           -     @764 
        get_peek_export     uvm_get_peek_imp            -     @746 
        put_ap              uvm_analysis_port           -     @755 
        put_export          uvm_put_imp                 -     @737 
-------------------------------------------------------------------

UVM_INFO ../AHB_agt/AHB_monitor.sv(28) @ 0: uvm_test_top.env.AHB_agth[0].monh [AHB_monitor] inside task, before wait
UVM_INFO ../AXI_agt/AXI_monitor.sv(55) @ 0: uvm_test_top.env.AXI_agth[0].monh [AXI_monitor] AW Channel method started
UVM_INFO ../AXI_agt/AXI_monitor.sv(83) @ 0: uvm_test_top.env.AXI_agth[0].monh [AXI_monitor] AR Channel method started
UVM_INFO ../tb/scoreboard.sv(123) @ 0: uvm_test_top.env.sbh[0] [scoreboard] got axi data
UVM_INFO ../AXI_rst_agt/AXI_rst_driver.sv(18) @ 0: uvm_test_top.env.AXI_rst_agth[0].drvh [AXI_rst_driver] Data in driver
-----------------------------------
Name       Type         Size  Value
-----------------------------------
req        AXI_rst_xtn  -     @1669
  ARESETn  integral     1     'b0  
  BVALID   integral     1     'bx  
  RVALID   integral     1     'bx  
-----------------------------------
UVM_INFO ../AHB_rst_agt/AHB_rst_driver.sv(22) @ 0: uvm_test_top.env.AHB_rst_agth[0].drvh [AHB_rst_driver] Data in AHB_rst_driver
-----------------------------------
Name       Type         Size  Value
-----------------------------------
req        AHB_rst_xtn  -     @1673
  HRESETn  integral     1     'b0  
  HREADY   integral     1     'b1  
  HTRANS   integral     2     'bxx 
-----------------------------------
UVM_INFO ../tb/scoreboard.sv(168) @ 15: uvm_test_top.env.sbh[0] [scoreboard] AHB rst GOOD
UVM_INFO ../tb/scoreboard.sv(158) @ 15: uvm_test_top.env.sbh[0] [scoreboard] AXI rst GOOD
UVM_INFO ../AXI_rst_agt/AXI_rst_driver.sv(18) @ 15: uvm_test_top.env.AXI_rst_agth[0].drvh [AXI_rst_driver] Data in driver
-----------------------------------
Name       Type         Size  Value
-----------------------------------
req        AXI_rst_xtn  -     @1669
  ARESETn  integral     1     'b1  
  BVALID   integral     1     'bx  
  RVALID   integral     1     'bx  
-----------------------------------
UVM_INFO ../AHB_rst_agt/AHB_rst_driver.sv(22) @ 15: uvm_test_top.env.AHB_rst_agth[0].drvh [AHB_rst_driver] Data in AHB_rst_driver
-----------------------------------
Name       Type         Size  Value
-----------------------------------
req        AHB_rst_xtn  -     @1673
  HRESETn  integral     1     'b1  
  HREADY   integral     1     'b0  
  HTRANS   integral     2     'bxx 
-----------------------------------
UVM_INFO ../AHB_agt/AHB_driver.sv(19) @ 35: uvm_test_top.env.AHB_agth[0].drvh [AHB_driver] Data in AHB Driver
---------------------------------------------
Name       Type      Size  Value             
---------------------------------------------
req        AHB_xtn   -     @1795             
  HADDR    integral  32    'h0               
  HWRITE   integral  1     'b0               
  HTRANS   integral  2     'b0               
  HSIZE    integral  3     'd0               
  HBURST   integral  3     'd0               
  HWDATA   integral  64    'h0               
  HBUSREQ  integral  1     'b0               
  HLOCK    integral  1     'b0               
  HREADY   integral  1     'b1               
  HRDATA   integral  64    'he19149e85956cc80
  HRESP    integral  1     'b0               
  HGRANT   integral  1     'b1               
  HMASTER  integral  4     'hd               
---------------------------------------------
UVM_INFO ../AXI_agt/AXI_driver.sv(56) @ 35: uvm_test_top.env.AXI_agth[0].drvh [AXI_driver] aw_channel method started
UVM_INFO ../AHB_agt/AHB_driver.sv(19) @ 45: uvm_test_top.env.AHB_agth[0].drvh [AHB_driver] Data in AHB Driver
---------------------------------------------
Name       Type      Size  Value             
---------------------------------------------
req        AHB_xtn   -     @1795             
  HADDR    integral  32    'h0               
  HWRITE   integral  1     'b0               
  HTRANS   integral  2     'b0               
  HSIZE    integral  3     'd0               
  HBURST   integral  3     'd0               
  HWDATA   integral  64    'h0               
  HBUSREQ  integral  1     'b0               
  HLOCK    integral  1     'b0               
  HREADY   integral  1     'b0               
  HRDATA   integral  64    'h23435342739daaa2
  HRESP    integral  1     'b1               
  HGRANT   integral  1     'b0               
  HMASTER  integral  4     'h2               
---------------------------------------------
UVM_INFO ../AXI_agt/AXI_monitor.sv(119) @ 46: uvm_test_top.env.AXI_agth[0].monh [AXI_monitor] AW Channel - WRITE DATA in AXI MONITOR
--------------------------------
Name       Type      Size  Value
--------------------------------
aw_xtn     AXI_xtn   -     @1659
  AWID     integral  8     'd35 
  AWADDR   integral  32    'h7d0
  AWLEN    integral  8     'd4  
  AWSIZE   integral  3     'd0  
  AWBURST  integral  2     2    
  AWVALID  integral  1     'b1  
  AWREADY  integral  1     'b1  
  WID      integral  8     'd0  
  WLAST    integral  1     'b0  
  WVALID   integral  1     'b0  
  WREADY   integral  1     'b0  
  BID      integral  8     'd0  
  BRESP    integral  1     'b0  
  BVALID   integral  1     'b0  
  BREADY   integral  1     'b0  
  ARID     integral  8     'd0  
  ARADDR   integral  32    'd0  
  ARLEN    integral  8     'd0  
  ARSIZE   integral  3     'd0  
  ARBURST  integral  2     'd0  
  ARVALID  integral  1     'b0  
  ARREADY  integral  1     'b0  
  RID      integral  8     'd0  
  RLAST    integral  1     'b0  
  RVALID   integral  1     'b0  
  RREADY   integral  1     'b0  
--------------------------------
UVM_INFO ../tb/scoreboard.sv(123) @ 46: uvm_test_top.env.sbh[0] [scoreboard] got axi data
UVM_INFO ../AXI_agt/AXI_monitor.sv(57) @ 55: uvm_test_top.env.AXI_agth[0].monh [AXI_monitor] AW Channel method ended
UVM_INFO ../AXI_agt/AXI_monitor.sv(201) @ 55: uvm_test_top.env.AXI_agth[0].monh [AXI_monitor] AR CHANNEL - READ DATA in AXI MONITOR
-------------------------------------
Name       Type      Size  Value     
-------------------------------------
ar_xtn     AXI_xtn   -     @1663     
  AWID     integral  8     'd0       
  AWADDR   integral  32    'h0       
  AWLEN    integral  8     'd0       
  AWSIZE   integral  3     'd0       
  AWBURST  integral  2     'd0       
  AWVALID  integral  1     'b0       
  AWREADY  integral  1     'b0       
  WID      integral  8     'd0       
  WLAST    integral  1     'b0       
  WVALID   integral  1     'b0       
  WREADY   integral  1     'b0       
  BID      integral  8     'd0       
  BRESP    integral  1     'b0       
  BVALID   integral  1     'b0       
  BREADY   integral  1     'b0       
  ARID     integral  8     236       
  ARADDR   integral  32    4270712143
  ARLEN    integral  8     'd4       
  ARSIZE   integral  3     'd0       
  ARBURST  integral  2     2         
  ARVALID  integral  1     'b1       
  ARREADY  integral  1     'b1       
  RID      integral  8     'd0       
  RLAST    integral  1     'b0       
  RVALID   integral  1     'b0       
  RREADY   integral  1     'b0       
-------------------------------------
UVM_INFO ../AXI_agt/AXI_monitor.sv(85) @ 55: uvm_test_top.env.AXI_agth[0].monh [AXI_monitor] AR Channel method ended
UVM_INFO ../AXI_agt/AXI_monitor.sv(65) @ 55: uvm_test_top.env.AXI_agth[0].monh [AXI_monitor] W Channel method started
UVM_INFO ../tb/scoreboard.sv(123) @ 55: uvm_test_top.env.sbh[0] [scoreboard] got axi data
UVM_INFO ../AXI_agt/AXI_monitor.sv(93) @ 55: uvm_test_top.env.AXI_agth[0].monh [AXI_monitor] R Channel method started
UVM_INFO ../AHB_agt/AHB_driver.sv(19) @ 55: uvm_test_top.env.AHB_agth[0].drvh [AHB_driver] Data in AHB Driver
---------------------------------------------
Name       Type      Size  Value             
---------------------------------------------
req        AHB_xtn   -     @1795             
  HADDR    integral  32    'h0               
  HWRITE   integral  1     'b0               
  HTRANS   integral  2     'b0               
  HSIZE    integral  3     'd0               
  HBURST   integral  3     'd0               
  HWDATA   integral  64    'h0               
  HBUSREQ  integral  1     'b0               
  HLOCK    integral  1     'b0               
  HREADY   integral  1     'b1               
  HRDATA   integral  64    'hfb7e6f7a14c01291
  HRESP    integral  1     'b1               
  HGRANT   integral  1     'b0               
  HMASTER  integral  4     'h5               
---------------------------------------------
UVM_INFO ../AXI_agt/AXI_driver.sv(58) @ 65: uvm_test_top.env.AXI_agth[0].drvh [AXI_driver] aw_channel method ended
UVM_INFO ../AXI_agt/AXI_driver.sv(66) @ 65: uvm_test_top.env.AXI_agth[0].drvh [AXI_driver] w_channel method started
UVM_INFO ../AHB_agt/AHB_driver.sv(19) @ 65: uvm_test_top.env.AHB_agth[0].drvh [AHB_driver] Data in AHB Driver
---------------------------------------------
Name       Type      Size  Value             
---------------------------------------------
req        AHB_xtn   -     @1795             
  HADDR    integral  32    'h0               
  HWRITE   integral  1     'b0               
  HTRANS   integral  2     'b0               
  HSIZE    integral  3     'd0               
  HBURST   integral  3     'd0               
  HWDATA   integral  64    'h0               
  HBUSREQ  integral  1     'b0               
  HLOCK    integral  1     'b0               
  HREADY   integral  1     'b1               
  HRDATA   integral  64    'ha50868150c91ab6d
  HRESP    integral  1     'b1               
  HGRANT   integral  1     'b0               
  HMASTER  integral  4     'h3               
---------------------------------------------
UVM_INFO ../tb/scoreboard.sv(143) @ 75: uvm_test_top.env.sbh[0] [scoreboard] got data for wdata queue
UVM_INFO ../AHB_agt/AHB_driver.sv(19) @ 75: uvm_test_top.env.AHB_agth[0].drvh [AHB_driver] Data in AHB Driver
---------------------------------------------
Name       Type      Size  Value             
---------------------------------------------
req        AHB_xtn   -     @1795             
  HADDR    integral  32    'h0               
  HWRITE   integral  1     'b0               
  HTRANS   integral  2     'b0               
  HSIZE    integral  3     'd0               
  HBURST   integral  3     'd0               
  HWDATA   integral  64    'h0               
  HBUSREQ  integral  1     'b0               
  HLOCK    integral  1     'b0               
  HREADY   integral  1     'b0               
  HRDATA   integral  64    'h7126971776ccb91e
  HRESP    integral  1     'b0               
  HGRANT   integral  1     'b1               
  HMASTER  integral  4     'h4               
---------------------------------------------
UVM_INFO ../tb/scoreboard.sv(143) @ 85: uvm_test_top.env.sbh[0] [scoreboard] got data for wdata queue
UVM_INFO ../AHB_agt/AHB_driver.sv(19) @ 85: uvm_test_top.env.AHB_agth[0].drvh [AHB_driver] Data in AHB Driver
---------------------------------------------
Name       Type      Size  Value             
---------------------------------------------
req        AHB_xtn   -     @1795             
  HADDR    integral  32    'h0               
  HWRITE   integral  1     'b0               
  HTRANS   integral  2     'b0               
  HSIZE    integral  3     'd0               
  HBURST   integral  3     'd0               
  HWDATA   integral  64    'h0               
  HBUSREQ  integral  1     'b0               
  HLOCK    integral  1     'b0               
  HREADY   integral  1     'b1               
  HRDATA   integral  64    'h37d5601e35a19c47
  HRESP    integral  1     'b1               
  HGRANT   integral  1     'b1               
  HMASTER  integral  4     'h9               
---------------------------------------------
UVM_INFO ../AHB_agt/AHB_driver.sv(19) @ 95: uvm_test_top.env.AHB_agth[0].drvh [AHB_driver] Data in AHB Driver
---------------------------------------------
Name       Type      Size  Value             
---------------------------------------------
req        AHB_xtn   -     @1795             
  HADDR    integral  32    'h0               
  HWRITE   integral  1     'b0               
  HTRANS   integral  2     'b0               
  HSIZE    integral  3     'd0               
  HBURST   integral  3     'd0               
  HWDATA   integral  64    'h0               
  HBUSREQ  integral  1     'b0               
  HLOCK    integral  1     'b0               
  HREADY   integral  1     'b1               
  HRDATA   integral  64    'h67b13cd77cc3c137
  HRESP    integral  1     'b0               
  HGRANT   integral  1     'b0               
  HMASTER  integral  4     'hc               
---------------------------------------------
UVM_INFO ../tb/scoreboard.sv(143) @ 105: uvm_test_top.env.sbh[0] [scoreboard] got data for wdata queue
UVM_INFO ../AHB_agt/AHB_driver.sv(19) @ 105: uvm_test_top.env.AHB_agth[0].drvh [AHB_driver] Data in AHB Driver
---------------------------------------------
Name       Type      Size  Value             
---------------------------------------------
req        AHB_xtn   -     @1795             
  HADDR    integral  32    'h0               
  HWRITE   integral  1     'b0               
  HTRANS   integral  2     'b0               
  HSIZE    integral  3     'd0               
  HBURST   integral  3     'd0               
  HWDATA   integral  64    'h0               
  HBUSREQ  integral  1     'b0               
  HLOCK    integral  1     'b0               
  HREADY   integral  1     'b0               
  HRDATA   integral  64    'h87106da48e14557f
  HRESP    integral  1     'b1               
  HGRANT   integral  1     'b0               
  HMASTER  integral  4     'h2               
---------------------------------------------
UVM_INFO ../tb/scoreboard.sv(143) @ 115: uvm_test_top.env.sbh[0] [scoreboard] got data for wdata queue
UVM_INFO ../AHB_agt/AHB_driver.sv(19) @ 115: uvm_test_top.env.AHB_agth[0].drvh [AHB_driver] Data in AHB Driver
---------------------------------------------
Name       Type      Size  Value             
---------------------------------------------
req        AHB_xtn   -     @1795             
  HADDR    integral  32    'h0               
  HWRITE   integral  1     'b0               
  HTRANS   integral  2     'b0               
  HSIZE    integral  3     'd0               
  HBURST   integral  3     'd0               
  HWDATA   integral  64    'h0               
  HBUSREQ  integral  1     'b0               
  HLOCK    integral  1     'b0               
  HREADY   integral  1     'b1               
  HRDATA   integral  64    'h8373eb4397e9bb21
  HRESP    integral  1     'b0               
  HGRANT   integral  1     'b1               
  HMASTER  integral  4     'h0               
---------------------------------------------
UVM_INFO ../AHB_agt/AHB_driver.sv(19) @ 125: uvm_test_top.env.AHB_agth[0].drvh [AHB_driver] Data in AHB Driver
---------------------------------------------
Name       Type      Size  Value             
---------------------------------------------
req        AHB_xtn   -     @1795             
  HADDR    integral  32    'h0               
  HWRITE   integral  1     'b0               
  HTRANS   integral  2     'b0               
  HSIZE    integral  3     'd0               
  HBURST   integral  3     'd0               
  HWDATA   integral  64    'h0               
  HBUSREQ  integral  1     'b0               
  HLOCK    integral  1     'b0               
  HREADY   integral  1     'b0               
  HRDATA   integral  64    'he037300f6ba078ef
  HRESP    integral  1     'b1               
  HGRANT   integral  1     'b1               
  HMASTER  integral  4     'hd               
---------------------------------------------
UVM_INFO ../AHB_agt/AHB_monitor.sv(30) @ 135: uvm_test_top.env.AHB_agth[0].monh [AHB_monitor] inside task, after wait
UVM_INFO ../AHB_agt/AHB_monitor.sv(59) @ 135: uvm_test_top.env.AHB_agth[0].monh [AHB_monitor] Monitor Data: 
 "--------------------------------
Name       Type      Size  Value
--------------------------------
ahb_xtn    AHB_xtn   -     @1635
  HADDR    integral  32    'h0  
  HWRITE   integral  1     'b0  
  HTRANS   integral  2     'b10 
  HSIZE    integral  3     'd0  
  HBURST   integral  3     'd0  
  HWDATA   integral  64    'h0  
  HBUSREQ  integral  1     'b0  
  HLOCK    integral  1     'b0  
  HREADY   integral  1     'b1  
  HRDATA   integral  64    'h0  
  HRESP    integral  1     'b0  
  HGRANT   integral  1     'b0  
  HMASTER  integral  4     'h0  
--------------------------------
"
UVM_INFO ../AHB_agt/AHB_monitor.sv(28) @ 135: uvm_test_top.env.AHB_agth[0].monh [AHB_monitor] inside task, before wait
UVM_INFO ../AHB_agt/AHB_monitor.sv(30) @ 135: uvm_test_top.env.AHB_agth[0].monh [AHB_monitor] inside task, after wait
UVM_INFO ../AXI_agt/AXI_monitor.sv(161) @ 135: uvm_test_top.env.AXI_agth[0].monh [AXI_monitor] W Channel - WRITE DATA in AXI MONITOR
----------------------------------------------
Name        Type      Size  Value             
----------------------------------------------
aw_xtn      AXI_xtn   -     @1659             
  AWID      integral  8     'd35              
  AWADDR    integral  32    'h7d0             
  AWLEN     integral  8     'd4               
  AWSIZE    integral  3     'd0               
  AWBURST   integral  2     2                 
  AWVALID   integral  1     'b1               
  AWREADY   integral  1     'b1               
  WID       integral  8     'd35              
  WDATA[0]  integral  64    'hdd188b652b4b7053
  WDATA[1]  integral  64    'hdd188b652b4b7053
  WDATA[2]  integral  64    'hf6912d1a639aa9dd
  WDATA[3]  integral  64    'hf6912d1a639aa9dd
  WDATA[4]  integral  64    'hc7815a6d800ddfe0
  WSTRB[0]  integral  8     'b1               
  WSTRB[1]  integral  8     'b1               
  WSTRB[2]  integral  8     'b10              
  WSTRB[3]  integral  8     'b10              
  WSTRB[4]  integral  8     'b100             
  WLAST     integral  1     'b0               
  WVALID    integral  1     'b1               
  WREADY    integral  1     'b1               
  BID       integral  8     'd0               
  BRESP     integral  1     'b0               
  BVALID    integral  1     'b0               
  BREADY    integral  1     'b0               
  ARID      integral  8     'd0               
  ARADDR    integral  32    'd0               
  ARLEN     integral  8     'd0               
  ARSIZE    integral  3     'd0               
  ARBURST   integral  2     'd0               
  ARVALID   integral  1     'b0               
  ARREADY   integral  1     'b0               
  RID       integral  8     'd0               
  RLAST     integral  1     'b0               
  RVALID    integral  1     'b0               
  RREADY    integral  1     'b0               
----------------------------------------------
UVM_INFO ../AXI_agt/AXI_monitor.sv(67) @ 135: uvm_test_top.env.AXI_agth[0].monh [AXI_monitor] W Channel method ended
UVM_INFO ../tb/scoreboard.sv(135) @ 135: uvm_test_top.env.sbh[0] [scoreboard] got ahb data
UVM_INFO ../tb/scoreboard.sv(200) @ 135: uvm_test_top.env.sbh[0] [scoreboard] waiting for rdata queue
UVM_INFO ../tb/scoreboard.sv(143) @ 135: uvm_test_top.env.sbh[0] [scoreboard] got data for wdata queue
UVM_INFO ../tb/scoreboard.sv(123) @ 135: uvm_test_top.env.sbh[0] [scoreboard] got axi data
UVM_INFO ../AXI_agt/AXI_monitor.sv(75) @ 135: uvm_test_top.env.AXI_agth[0].monh [AXI_monitor] B Channel method started
UVM_INFO ../AHB_agt/AHB_driver.sv(19) @ 135: uvm_test_top.env.AHB_agth[0].drvh [AHB_driver] Data in AHB Driver
---------------------------------------------
Name       Type      Size  Value             
---------------------------------------------
req        AHB_xtn   -     @1795             
  HADDR    integral  32    'h0               
  HWRITE   integral  1     'b0               
  HTRANS   integral  2     'b0               
  HSIZE    integral  3     'd0               
  HBURST   integral  3     'd0               
  HWDATA   integral  64    'h0               
  HBUSREQ  integral  1     'b0               
  HLOCK    integral  1     'b0               
  HREADY   integral  1     'b0               
  HRDATA   integral  64    'hd9f13b13293c7516
  HRESP    integral  1     'b1               
  HGRANT   integral  1     'b1               
  HMASTER  integral  4     'h3               
---------------------------------------------
UVM_INFO ../AHB_agt/AHB_monitor.sv(59) @ 145: uvm_test_top.env.AHB_agth[0].monh [AHB_monitor] Monitor Data: 
 "---------------------------------------------
Name       Type      Size  Value             
---------------------------------------------
ahb_xtn    AHB_xtn   -     @1848             
  HADDR    integral  32    'h0               
  HWRITE   integral  1     'b0               
  HTRANS   integral  2     'b10              
  HSIZE    integral  3     'd0               
  HBURST   integral  3     'd0               
  HWDATA   integral  64    'h0               
  HBUSREQ  integral  1     'b0               
  HLOCK    integral  1     'b0               
  HREADY   integral  1     'b1               
  HRDATA   integral  64    'hd9f13b13293c7516
  HRESP    integral  1     'b0               
  HGRANT   integral  1     'b0               
  HMASTER  integral  4     'h0               
---------------------------------------------
"
UVM_INFO ../AHB_agt/AHB_monitor.sv(28) @ 145: uvm_test_top.env.AHB_agth[0].monh [AHB_monitor] inside task, before wait
UVM_INFO ../AHB_agt/AHB_monitor.sv(30) @ 145: uvm_test_top.env.AHB_agth[0].monh [AHB_monitor] inside task, after wait
UVM_INFO ../AHB_agt/AHB_driver.sv(19) @ 145: uvm_test_top.env.AHB_agth[0].drvh [AHB_driver] Data in AHB Driver
---------------------------------------------
Name       Type      Size  Value             
---------------------------------------------
req        AHB_xtn   -     @1795             
  HADDR    integral  32    'h0               
  HWRITE   integral  1     'b0               
  HTRANS   integral  2     'b0               
  HSIZE    integral  3     'd0               
  HBURST   integral  3     'd0               
  HWDATA   integral  64    'h0               
  HBUSREQ  integral  1     'b0               
  HLOCK    integral  1     'b0               
  HREADY   integral  1     'b0               
  HRDATA   integral  64    'hcaa81025f03606c6
  HRESP    integral  1     'b1               
  HGRANT   integral  1     'b1               
  HMASTER  integral  4     'hc               
---------------------------------------------
UVM_INFO ../AHB_agt/AHB_monitor.sv(59) @ 155: uvm_test_top.env.AHB_agth[0].monh [AHB_monitor] Monitor Data: 
 "---------------------------------------------
Name       Type      Size  Value             
---------------------------------------------
ahb_xtn    AHB_xtn   -     @1860             
  HADDR    integral  32    'h0               
  HWRITE   integral  1     'b0               
  HTRANS   integral  2     'b10              
  HSIZE    integral  3     'd0               
  HBURST   integral  3     'd0               
  HWDATA   integral  64    'h0               
  HBUSREQ  integral  1     'b0               
  HLOCK    integral  1     'b0               
  HREADY   integral  1     'b1               
  HRDATA   integral  64    'hcaa81025f03606c6
  HRESP    integral  1     'b0               
  HGRANT   integral  1     'b0               
  HMASTER  integral  4     'h0               
---------------------------------------------
"
UVM_INFO ../AHB_agt/AHB_monitor.sv(28) @ 155: uvm_test_top.env.AHB_agth[0].monh [AHB_monitor] inside task, before wait
UVM_INFO ../AHB_agt/AHB_monitor.sv(30) @ 155: uvm_test_top.env.AHB_agth[0].monh [AHB_monitor] inside task, after wait
UVM_INFO ../AHB_agt/AHB_driver.sv(19) @ 155: uvm_test_top.env.AHB_agth[0].drvh [AHB_driver] Data in AHB Driver
---------------------------------------------
Name       Type      Size  Value             
---------------------------------------------
req        AHB_xtn   -     @1795             
  HADDR    integral  32    'h0               
  HWRITE   integral  1     'b0               
  HTRANS   integral  2     'b0               
  HSIZE    integral  3     'd0               
  HBURST   integral  3     'd0               
  HWDATA   integral  64    'h0               
  HBUSREQ  integral  1     'b0               
  HLOCK    integral  1     'b0               
  HREADY   integral  1     'b1               
  HRDATA   integral  64    'h958554ae21a194d6
  HRESP    integral  1     'b1               
  HGRANT   integral  1     'b0               
  HMASTER  integral  4     'h9               
---------------------------------------------
UVM_INFO ../AHB_agt/AHB_monitor.sv(43) @ 165: uvm_test_top.env.AHB_agth[0].monh [AHB_monitor] inside hwrite monitor, before wait
UVM_INFO ../AHB_agt/AHB_monitor.sv(45) @ 165: uvm_test_top.env.AHB_agth[0].monh [AHB_monitor] inside hwrite monitor, after wait
UVM_INFO ../AHB_agt/AHB_monitor.sv(59) @ 165: uvm_test_top.env.AHB_agth[0].monh [AHB_monitor] Monitor Data: 
 "---------------------------------
Name       Type      Size  Value 
---------------------------------
ahb_xtn    AHB_xtn   -     @1864 
  HADDR    integral  32    'h7d0 
  HWRITE   integral  1     'b1   
  HTRANS   integral  2     'b10  
  HSIZE    integral  3     'd0   
  HBURST   integral  3     'd0   
  HWDATA   integral  64    'ha900
  HBUSREQ  integral  1     'b0   
  HLOCK    integral  1     'b0   
  HREADY   integral  1     'b1   
  HRDATA   integral  64    'h0   
  HRESP    integral  1     'b0   
  HGRANT   integral  1     'b0   
  HMASTER  integral  4     'h0   
---------------------------------
"
UVM_INFO ../AHB_agt/AHB_monitor.sv(28) @ 165: uvm_test_top.env.AHB_agth[0].monh [AHB_monitor] inside task, before wait
UVM_INFO ../AHB_agt/AHB_monitor.sv(30) @ 165: uvm_test_top.env.AHB_agth[0].monh [AHB_monitor] inside task, after wait
UVM_INFO ../AHB_agt/AHB_monitor.sv(43) @ 175: uvm_test_top.env.AHB_agth[0].monh [AHB_monitor] inside hwrite monitor, before wait
UVM_INFO ../AHB_agt/AHB_monitor.sv(45) @ 175: uvm_test_top.env.AHB_agth[0].monh [AHB_monitor] inside hwrite monitor, after wait
UVM_INFO ../AHB_agt/AHB_monitor.sv(59) @ 175: uvm_test_top.env.AHB_agth[0].monh [AHB_monitor] Monitor Data: 
 "---------------------------------
Name       Type      Size  Value 
---------------------------------
ahb_xtn    AHB_xtn   -     @1872 
  HADDR    integral  32    'h7d1 
  HWRITE   integral  1     'b1   
  HTRANS   integral  2     'b10  
  HSIZE    integral  3     'd0   
  HBURST   integral  3     'd0   
  HWDATA   integral  64    'ha900
  HBUSREQ  integral  1     'b0   
  HLOCK    integral  1     'b0   
  HREADY   integral  1     'b1   
  HRDATA   integral  64    'h0   
  HRESP    integral  1     'b0   
  HGRANT   integral  1     'b0   
  HMASTER  integral  4     'h0   
---------------------------------
"
UVM_INFO ../AHB_agt/AHB_monitor.sv(28) @ 175: uvm_test_top.env.AHB_agth[0].monh [AHB_monitor] inside task, before wait
UVM_INFO ../AHB_agt/AHB_monitor.sv(30) @ 175: uvm_test_top.env.AHB_agth[0].monh [AHB_monitor] inside task, after wait
UVM_INFO ../AHB_agt/AHB_monitor.sv(43) @ 185: uvm_test_top.env.AHB_agth[0].monh [AHB_monitor] inside hwrite monitor, before wait
UVM_INFO ../AHB_agt/AHB_monitor.sv(45) @ 185: uvm_test_top.env.AHB_agth[0].monh [AHB_monitor] inside hwrite monitor, after wait
UVM_INFO ../AHB_agt/AHB_monitor.sv(59) @ 185: uvm_test_top.env.AHB_agth[0].monh [AHB_monitor] Monitor Data: 
 "----------------------------------
Name       Type      Size  Value  
----------------------------------
ahb_xtn    AHB_xtn   -     @1876  
  HADDR    integral  32    'h7d1  
  HWRITE   integral  1     'b1    
  HTRANS   integral  2     'b10   
  HSIZE    integral  3     'd0    
  HBURST   integral  3     'd0    
  HWDATA   integral  64    'hd0000
  HBUSREQ  integral  1     'b0    
  HLOCK    integral  1     'b0    
  HREADY   integral  1     'b1    
  HRDATA   integral  64    'h0    
  HRESP    integral  1     'b0    
  HGRANT   integral  1     'b0    
  HMASTER  integral  4     'h0    
----------------------------------
"
UVM_INFO ../AHB_agt/AHB_monitor.sv(28) @ 185: uvm_test_top.env.AHB_agth[0].monh [AHB_monitor] inside task, before wait
UVM_INFO ../AHB_agt/AHB_monitor.sv(30) @ 185: uvm_test_top.env.AHB_agth[0].monh [AHB_monitor] inside task, after wait
UVM_INFO ../AHB_agt/AHB_monitor.sv(43) @ 195: uvm_test_top.env.AHB_agth[0].monh [AHB_monitor] inside hwrite monitor, before wait
UVM_INFO ../AHB_agt/AHB_monitor.sv(45) @ 195: uvm_test_top.env.AHB_agth[0].monh [AHB_monitor] inside hwrite monitor, after wait
UVM_INFO ../AHB_agt/AHB_monitor.sv(59) @ 195: uvm_test_top.env.AHB_agth[0].monh [AHB_monitor] Monitor Data: 
 "--------------------------------
Name       Type      Size  Value
--------------------------------
ahb_xtn    AHB_xtn   -     @1884
  HADDR    integral  32    'h7d2
  HWRITE   integral  1     'b1  
  HTRANS   integral  2     'b10 
  HSIZE    integral  3     'd0  
  HBURST   integral  3     'd0  
  HWDATA   integral  64    'h0  
  HBUSREQ  integral  1     'b0  
  HLOCK    integral  1     'b0  
  HREADY   integral  1     'b1  
  HRDATA   integral  64    'h0  
  HRESP    integral  1     'b0  
  HGRANT   integral  1     'b0  
  HMASTER  integral  4     'h0  
--------------------------------
"
UVM_INFO ../AHB_agt/AHB_monitor.sv(28) @ 195: uvm_test_top.env.AHB_agth[0].monh [AHB_monitor] inside task, before wait
UVM_INFO ../AXI_agt/AXI_driver.sv(68) @ 215: uvm_test_top.env.AXI_agth[0].drvh [AXI_driver] w_channel method ended
UVM_INFO ../AXI_agt/AXI_driver.sv(76) @ 215: uvm_test_top.env.AXI_agth[0].drvh [AXI_driver] b_channel method started
UVM_INFO ../AHB_agt/AHB_monitor.sv(30) @ 235: uvm_test_top.env.AHB_agth[0].monh [AHB_monitor] inside task, after wait
UVM_INFO ../AHB_agt/AHB_monitor.sv(59) @ 235: uvm_test_top.env.AHB_agth[0].monh [AHB_monitor] Monitor Data: 
 "---------------------------------------------
Name       Type      Size  Value             
---------------------------------------------
ahb_xtn    AHB_xtn   -     @1888             
  HADDR    integral  32    'h0               
  HWRITE   integral  1     'b0               
  HTRANS   integral  2     'b10              
  HSIZE    integral  3     'd0               
  HBURST   integral  3     'd0               
  HWDATA   integral  64    'h0               
  HBUSREQ  integral  1     'b0               
  HLOCK    integral  1     'b0               
  HREADY   integral  1     'b1               
  HRDATA   integral  64    'hcaa81025f03606c6
  HRESP    integral  1     'b0               
  HGRANT   integral  1     'b0               
  HMASTER  integral  4     'h0               
---------------------------------------------
"
UVM_INFO ../AHB_agt/AHB_monitor.sv(28) @ 235: uvm_test_top.env.AHB_agth[0].monh [AHB_monitor] inside task, before wait
UVM_INFO ../AHB_agt/AHB_monitor.sv(30) @ 235: uvm_test_top.env.AHB_agth[0].monh [AHB_monitor] inside task, after wait
UVM_INFO ../AXI_agt/AXI_driver.sv(140) @ 235: uvm_test_top.env.AXI_agth[0].drvh [AXI_driver] Inside b_channel driving logic - waiting for bvalid
UVM_INFO ../AHB_agt/AHB_monitor.sv(59) @ 245: uvm_test_top.env.AHB_agth[0].monh [AHB_monitor] Monitor Data: 
 "---------------------------------------------
Name       Type      Size  Value             
---------------------------------------------
ahb_xtn    AHB_xtn   -     @1900             
  HADDR    integral  32    'h0               
  HWRITE   integral  1     'b0               
  HTRANS   integral  2     'b10              
  HSIZE    integral  3     'd0               
  HBURST   integral  3     'd0               
  HWDATA   integral  64    'h0               
  HBUSREQ  integral  1     'b0               
  HLOCK    integral  1     'b0               
  HREADY   integral  1     'b1               
  HRDATA   integral  64    'hcaa81025f03606c6
  HRESP    integral  1     'b0               
  HGRANT   integral  1     'b0               
  HMASTER  integral  4     'h0               
---------------------------------------------
"
UVM_INFO ../AHB_agt/AHB_monitor.sv(28) @ 245: uvm_test_top.env.AHB_agth[0].monh [AHB_monitor] inside task, before wait
UVM_INFO ../AHB_agt/AHB_monitor.sv(30) @ 245: uvm_test_top.env.AHB_agth[0].monh [AHB_monitor] inside task, after wait
UVM_INFO ../tb/scoreboard.sv(209) @ 245: uvm_test_top.env.sbh[0] [scoreboard] DATA MISMATCH :(, axi_rdata = caa81025f03606c6, ahb_rdata = 0
UVM_INFO ../tb/scoreboard.sv(135) @ 245: uvm_test_top.env.sbh[0] [scoreboard] got ahb data
UVM_INFO ../tb/scoreboard.sv(200) @ 245: uvm_test_top.env.sbh[0] [scoreboard] waiting for rdata queue
UVM_INFO ../AHB_agt/AHB_monitor.sv(59) @ 255: uvm_test_top.env.AHB_agth[0].monh [AHB_monitor] Monitor Data: 
 "---------------------------------------------
Name       Type      Size  Value             
---------------------------------------------
ahb_xtn    AHB_xtn   -     @1912             
  HADDR    integral  32    'h0               
  HWRITE   integral  1     'b0               
  HTRANS   integral  2     'b10              
  HSIZE    integral  3     'd0               
  HBURST   integral  3     'd0               
  HWDATA   integral  64    'h0               
  HBUSREQ  integral  1     'b0               
  HLOCK    integral  1     'b0               
  HREADY   integral  1     'b1               
  HRDATA   integral  64    'hcaa81025f03606c6
  HRESP    integral  1     'b0               
  HGRANT   integral  1     'b0               
  HMASTER  integral  4     'h0               
---------------------------------------------
"
UVM_INFO ../AHB_agt/AHB_monitor.sv(28) @ 255: uvm_test_top.env.AHB_agth[0].monh [AHB_monitor] inside task, before wait
UVM_INFO ../AHB_agt/AHB_monitor.sv(30) @ 255: uvm_test_top.env.AHB_agth[0].monh [AHB_monitor] inside task, after wait
UVM_INFO ../tb/scoreboard.sv(209) @ 255: uvm_test_top.env.sbh[0] [scoreboard] DATA MISMATCH :(, axi_rdata = caa81025f03606c6, ahb_rdata = d9f13b13293c7516
UVM_INFO ../tb/scoreboard.sv(135) @ 255: uvm_test_top.env.sbh[0] [scoreboard] got ahb data
UVM_INFO ../tb/scoreboard.sv(200) @ 255: uvm_test_top.env.sbh[0] [scoreboard] waiting for rdata queue
UVM_INFO ../AHB_agt/AHB_monitor.sv(43) @ 265: uvm_test_top.env.AHB_agth[0].monh [AHB_monitor] inside hwrite monitor, before wait
UVM_INFO ../AHB_agt/AHB_monitor.sv(45) @ 265: uvm_test_top.env.AHB_agth[0].monh [AHB_monitor] inside hwrite monitor, after wait
UVM_INFO ../AHB_agt/AHB_monitor.sv(59) @ 265: uvm_test_top.env.AHB_agth[0].monh [AHB_monitor] Monitor Data: 
 "---------------------------------------
Name       Type      Size  Value       
---------------------------------------
ahb_xtn    AHB_xtn   -     @1920       
  HADDR    integral  32    'h7d3       
  HWRITE   integral  1     'b1         
  HTRANS   integral  2     'b10        
  HSIZE    integral  3     'd0         
  HBURST   integral  3     'd0         
  HWDATA   integral  64    'h7b00000000
  HBUSREQ  integral  1     'b0         
  HLOCK    integral  1     'b0         
  HREADY   integral  1     'b1         
  HRDATA   integral  64    'h0         
  HRESP    integral  1     'b0         
  HGRANT   integral  1     'b0         
  HMASTER  integral  4     'h0         
---------------------------------------
"
UVM_INFO ../AHB_agt/AHB_monitor.sv(28) @ 265: uvm_test_top.env.AHB_agth[0].monh [AHB_monitor] inside task, before wait
UVM_INFO ../AHB_agt/AHB_monitor.sv(30) @ 265: uvm_test_top.env.AHB_agth[0].monh [AHB_monitor] inside task, after wait
UVM_INFO ../AHB_agt/AHB_monitor.sv(43) @ 275: uvm_test_top.env.AHB_agth[0].monh [AHB_monitor] inside hwrite monitor, before wait
UVM_INFO ../AHB_agt/AHB_monitor.sv(45) @ 275: uvm_test_top.env.AHB_agth[0].monh [AHB_monitor] inside hwrite monitor, after wait
UVM_INFO ../AHB_agt/AHB_monitor.sv(59) @ 275: uvm_test_top.env.AHB_agth[0].monh [AHB_monitor] Monitor Data: 
 "--------------------------------
Name       Type      Size  Value
--------------------------------
ahb_xtn    AHB_xtn   -     @1928
  HADDR    integral  32    'h7d4
  HWRITE   integral  1     'b1  
  HTRANS   integral  2     'b10 
  HSIZE    integral  3     'd0  
  HBURST   integral  3     'd0  
  HWDATA   integral  64    'h0  
  HBUSREQ  integral  1     'b0  
  HLOCK    integral  1     'b0  
  HREADY   integral  1     'b1  
  HRDATA   integral  64    'h0  
  HRESP    integral  1     'b0  
  HGRANT   integral  1     'b0  
  HMASTER  integral  4     'h0  
--------------------------------
"
UVM_INFO ../AHB_agt/AHB_monitor.sv(28) @ 275: uvm_test_top.env.AHB_agth[0].monh [AHB_monitor] inside task, before wait
Interrupt at time 47728055

exit
            V C S   S i m u l a t i o n   R e p o r t 
Time: 47728055 ns
CPU Time:     36.060 seconds;       Data structure size:   0.8Mb
Sat Aug  1 18:16:26 2026
