Command: /home2/B126/AKSSolomon/VLSI_RN_OFFLINE/AXI2AHB_Bridge/sim/./simv -l ahbnormaltest.log +UVM_TESTNAME=AHB_normal_test +fsdbfile+axiahb.fsdb +ntb_random_seed_automatic -cm_dir ./ahbnormal_data
Chronologic VCS simulator copyright 1991-2025
Contains Synopsys proprietary information.
Compiler version X-2025.06_Full64; Runtime version X-2025.06_Full64;  Aug  3 19:36 2026
NOTE: automatic random seed used: 516553079
----------------------------------------------------------------
UVM-1.1d.Synopsys
(C) 2007-2013 Mentor Graphics Corporation
(C) 2007-2013 Cadence Design Systems, Inc.
(C) 2006-2013 Synopsys, Inc.
(C) 2011-2013 Cypress Semiconductor Corp.
----------------------------------------------------------------

  ***********       IMPORTANT RELEASE NOTES         ************

  You are using a version of the UVM library that has been compiled
  with `UVM_NO_DEPRECATED undefined.
  See http://www.eda.org/svdb/view.php?id=3313 for more details.

  You are using a version of the UVM library that has been compiled
  with `UVM_OBJECT_MUST_HAVE_CONSTRUCTOR undefined.
  See http://www.eda.org/svdb/view.php?id=3770 for more details.

      (Specify +UVM_NO_RELNOTES to turn off this notice)

UVM_INFO @ 0: reporter [RNTST] Running test AHB_normal_test...
*Verdi* Loading libsscore_vcs202506.so
FSDB Dumper for VCS, Release Verdi_X-2025.06, Linux x86_64/64bit, 05/31/2025
(C) 1996 - 2025 by Synopsys, Inc.
*Verdi* WARNING: Env/runtime option has specified fsdbfile name as "axiahb.fsdb". Fsdbfile name in task "wave.fsdb" is ignored.
*Verdi* FSDB WARNING: The FSDB file already exists. Overwriting the FSDB file may crash the programs that are using this file.
*Verdi* : Create FSDB file 'axiahb.fsdb'
*Verdi* : Begin traversing the scope (top), layer (0).
*Verdi* : End of traversing.
UVM_INFO @ 0: reporter [UVMTOP] UVM testbench topology:
-------------------------------------------------------------------
Name                        Type                        Size  Value
-------------------------------------------------------------------
uvm_test_top                AHB_normal_test             -     @483 
  env                       env                         -     @496 
    AHB_agth[0]             AHB_agent                   -     @870 
      drvh                  AHB_driver                  -     @918 
        rsp_port            uvm_analysis_port           -     @935 
        seq_item_port       uvm_seq_item_pull_port      -     @926 
      monh                  AHB_monitor                 -     @898 
        AHB_mon_port        uvm_analysis_port           -     @906 
      seqrh                 AHB_sequencer               -     @944 
        rsp_export          uvm_analysis_export         -     @952 
        seq_item_export     uvm_seq_item_pull_imp       -     @1058
        arbitration_queue   array                       0     -    
        lock_queue          array                       0     -    
        num_last_reqs       integral                    32    'd1  
        num_last_rsps       integral                    32    'd1  
    AHB_rst_agth[0]         AHB_rst_agent               -     @885 
      drvh                  AHB_rst_driver              -     @1098
        rsp_port            uvm_analysis_port           -     @1115
        seq_item_port       uvm_seq_item_pull_port      -     @1106
      monh                  AHB_rst_monitor             -     @1079
        AHB_rst_mon_port    uvm_analysis_port           -     @1087
      seqrh                 AHB_rst_sequencer           -     @1124
        rsp_export          uvm_analysis_export         -     @1132
        seq_item_export     uvm_seq_item_pull_imp       -     @1238
        arbitration_queue   array                       0     -    
        lock_queue          array                       0     -    
        num_last_reqs       integral                    32    'd1  
        num_last_rsps       integral                    32    'd1  
    AXI_agth[0]             AXI_agent                   -     @841 
      drvh                  AXI_driver                  -     @1299
        rsp_port            uvm_analysis_port           -     @1316
        seq_item_port       uvm_seq_item_pull_port      -     @1307
      monh                  AXI_monitor                 -     @1263
        AXI_mon_port        uvm_analysis_port           -     @1271
        AXI_rdata_mon_port  uvm_analysis_port           -     @1289
        AXI_wdata_mon_port  uvm_analysis_port           -     @1280
      seqrh                 AXI_sequencer               -     @1325
        rsp_export          uvm_analysis_export         -     @1333
        seq_item_export     uvm_seq_item_pull_imp       -     @1439
        arbitration_queue   array                       0     -    
        lock_queue          array                       0     -    
        num_last_reqs       integral                    32    'd1  
        num_last_rsps       integral                    32    'd1  
    AXI_rst_agth[0]         AXI_rst_agent               -     @856 
      drvh                  AXI_rst_driver              -     @1478
        rsp_port            uvm_analysis_port           -     @1495
        seq_item_port       uvm_seq_item_pull_port      -     @1486
      monh                  AXI_rst_monitor             -     @1460
        AXI_rst_mon_port    uvm_analysis_port           -     @1468
      seqrh                 AXI_rst_sequencer           -     @1504
        rsp_export          uvm_analysis_export         -     @1512
        seq_item_export     uvm_seq_item_pull_imp       -     @1618
        arbitration_queue   array                       0     -    
        lock_queue          array                       0     -    
        num_last_reqs       integral                    32    'd1  
        num_last_rsps       integral                    32    'd1  
    sbh[0]                  scoreboard                  -     @509 
      AHB_fifoh             uvm_tlm_analysis_fifo #(T)  -     @623 
        analysis_export     uvm_analysis_imp            -     @667 
        get_ap              uvm_analysis_port           -     @658 
        get_peek_export     uvm_get_peek_imp            -     @640 
        put_ap              uvm_analysis_port           -     @649 
        put_export          uvm_put_imp                 -     @631 
      AHB_rst_fifoh         uvm_tlm_analysis_fifo #(T)  -     @676 
        analysis_export     uvm_analysis_imp            -     @720 
        get_ap              uvm_analysis_port           -     @711 
        get_peek_export     uvm_get_peek_imp            -     @693 
        put_ap              uvm_analysis_port           -     @702 
        put_export          uvm_put_imp                 -     @684 
      AXI_fifoh             uvm_tlm_analysis_fifo #(T)  -     @517 
        analysis_export     uvm_analysis_imp            -     @561 
        get_ap              uvm_analysis_port           -     @552 
        get_peek_export     uvm_get_peek_imp            -     @534 
        put_ap              uvm_analysis_port           -     @543 
        put_export          uvm_put_imp                 -     @525 
      AXI_rdata_fifoh       uvm_tlm_analysis_fifo #(T)  -     @782 
        analysis_export     uvm_analysis_imp            -     @826 
        get_ap              uvm_analysis_port           -     @817 
        get_peek_export     uvm_get_peek_imp            -     @799 
        put_ap              uvm_analysis_port           -     @808 
        put_export          uvm_put_imp                 -     @790 
      AXI_rst_fifoh         uvm_tlm_analysis_fifo #(T)  -     @570 
        analysis_export     uvm_analysis_imp            -     @614 
        get_ap              uvm_analysis_port           -     @605 
        get_peek_export     uvm_get_peek_imp            -     @587 
        put_ap              uvm_analysis_port           -     @596 
        put_export          uvm_put_imp                 -     @578 
      AXI_wdata_fifoh       uvm_tlm_analysis_fifo #(T)  -     @729 
        analysis_export     uvm_analysis_imp            -     @773 
        get_ap              uvm_analysis_port           -     @764 
        get_peek_export     uvm_get_peek_imp            -     @746 
        put_ap              uvm_analysis_port           -     @755 
        put_export          uvm_put_imp                 -     @737 
-------------------------------------------------------------------

UVM_INFO ../AXI_agt/AXI_monitor.sv(55) @ 0: uvm_test_top.env.AXI_agth[0].monh [AXI_monitor] AW Channel method started
UVM_INFO ../AXI_agt/AXI_monitor.sv(83) @ 0: uvm_test_top.env.AXI_agth[0].monh [AXI_monitor] AR Channel method started
UVM_INFO ../tb/scoreboard.sv(123) @ 0: uvm_test_top.env.sbh[0] [scoreboard] got axi data
UVM_INFO ../AXI_rst_agt/AXI_rst_driver.sv(18) @ 0: uvm_test_top.env.AXI_rst_agth[0].drvh [AXI_rst_driver] Data in driver
-----------------------------------
Name       Type         Size  Value
-----------------------------------
req        AXI_rst_xtn  -     @1665
  ARESETn  integral     1     'b0  
  BVALID   integral     1     'bx  
  RVALID   integral     1     'bx  
-----------------------------------
UVM_INFO ../AHB_rst_agt/AHB_rst_driver.sv(22) @ 0: uvm_test_top.env.AHB_rst_agth[0].drvh [AHB_rst_driver] Data in AHB_rst_driver
-----------------------------------
Name       Type         Size  Value
-----------------------------------
req        AHB_rst_xtn  -     @1669
  HRESETn  integral     1     'b0  
  HREADY   integral     1     'b1  
  HTRANS   integral     2     'bxx 
-----------------------------------
UVM_INFO ../AXI_rst_agt/AXI_rst_monitor.sv(38) @ 15: uvm_test_top.env.AXI_rst_agth[0].monh [AXI_rst_monitor] Data in AXI RST MONITOR
-----------------------------------
Name       Type         Size  Value
-----------------------------------
xtn        AXI_rst_xtn  -     @1641
  ARESETn  integral     1     'b0  
  BVALID   integral     1     'b0  
  RVALID   integral     1     'b0  
-----------------------------------
UVM_INFO ../tb/scoreboard.sv(161) @ 15: uvm_test_top.env.sbh[0] [scoreboard] AXI rst GOOD
UVM_INFO ../AXI_rst_agt/AXI_rst_driver.sv(18) @ 15: uvm_test_top.env.AXI_rst_agth[0].drvh [AXI_rst_driver] Data in driver
-----------------------------------
Name       Type         Size  Value
-----------------------------------
req        AXI_rst_xtn  -     @1665
  ARESETn  integral     1     'b1  
  BVALID   integral     1     'bx  
  RVALID   integral     1     'bx  
-----------------------------------
UVM_INFO ../AHB_rst_agt/AHB_rst_monitor.sv(37) @ 21: uvm_test_top.env.AHB_rst_agth[0].monh [AHB_rst_monitor] Data in AHB RST MONITOR
-----------------------------------
Name       Type         Size  Value
-----------------------------------
xtn        AHB_rst_xtn  -     @1251
  HRESETn  integral     1     'b0  
  HREADY   integral     1     'b0  
  HTRANS   integral     2     'b0  
-----------------------------------
UVM_INFO ../tb/scoreboard.sv(171) @ 21: uvm_test_top.env.sbh[0] [scoreboard] AHB rst GOOD
UVM_INFO ../AHB_rst_agt/AHB_rst_driver.sv(22) @ 21: uvm_test_top.env.AHB_rst_agth[0].drvh [AHB_rst_driver] Data in AHB_rst_driver
-----------------------------------
Name       Type         Size  Value
-----------------------------------
req        AHB_rst_xtn  -     @1669
  HRESETn  integral     1     'b1  
  HREADY   integral     1     'b0  
  HTRANS   integral     2     'bxx 
-----------------------------------
UVM_INFO ../AXI_rst_agt/AXI_rst_monitor.sv(38) @ 25: uvm_test_top.env.AXI_rst_agth[0].monh [AXI_rst_monitor] Data in AXI RST MONITOR
-----------------------------------
Name       Type         Size  Value
-----------------------------------
xtn        AXI_rst_xtn  -     @1769
  ARESETn  integral     1     'b0  
  BVALID   integral     1     'b0  
  RVALID   integral     1     'b0  
-----------------------------------
UVM_INFO ../tb/scoreboard.sv(161) @ 25: uvm_test_top.env.sbh[0] [scoreboard] AXI rst GOOD
UVM_INFO ../AXI_rst_agt/AXI_rst_monitor.sv(38) @ 35: uvm_test_top.env.AXI_rst_agth[0].monh [AXI_rst_monitor] Data in AXI RST MONITOR
-----------------------------------
Name       Type         Size  Value
-----------------------------------
xtn        AXI_rst_xtn  -     @1775
  ARESETn  integral     1     'b1  
  BVALID   integral     1     'b0  
  RVALID   integral     1     'b0  
-----------------------------------
UVM_INFO ../AHB_rst_agt/AHB_rst_monitor.sv(37) @ 35: uvm_test_top.env.AHB_rst_agth[0].monh [AHB_rst_monitor] Data in AHB RST MONITOR
-----------------------------------
Name       Type         Size  Value
-----------------------------------
xtn        AHB_rst_xtn  -     @1251
  HRESETn  integral     1     'b0  
  HREADY   integral     1     'b0  
  HTRANS   integral     2     'b0  
-----------------------------------
UVM_INFO ../tb/scoreboard.sv(171) @ 35: uvm_test_top.env.sbh[0] [scoreboard] AHB rst GOOD
UVM_INFO ../AHB_rst_agt/AHB_rst_monitor.sv(37) @ 49: uvm_test_top.env.AHB_rst_agth[0].monh [AHB_rst_monitor] Data in AHB RST MONITOR
-----------------------------------
Name       Type         Size  Value
-----------------------------------
xtn        AHB_rst_xtn  -     @1251
  HRESETn  integral     1     'b1  
  HREADY   integral     1     'b0  
  HTRANS   integral     2     'b0  
-----------------------------------
UVM_INFO ../AHB_agt/AHB_driver.sv(19) @ 49: uvm_test_top.env.AHB_agth[0].drvh [AHB_driver] Data in AHB Driver
---------------------------------------------
Name       Type      Size  Value             
---------------------------------------------
req        AHB_xtn   -     @1795             
  HADDR    integral  32    'h0               
  HWRITE   integral  1     'b0               
  HTRANS   integral  2     'b0               
  HSIZE    integral  3     'd0               
  HBURST   integral  3     'd0               
  HWDATA   integral  64    'h0               
  HBUSREQ  integral  1     'b0               
  HLOCK    integral  1     'b0               
  HREADY   integral  1     'b0               
  HRDATA   integral  64    'h5b84923c088863ff
  HRESP    integral  1     'b1               
  HGRANT   integral  1     'b0               
  HMASTER  integral  4     'h6               
---------------------------------------------
UVM_INFO ../AXI_agt/AXI_driver.sv(56) @ 49: uvm_test_top.env.AXI_agth[0].drvh [AXI_driver] aw_channel method started
UVM_INFO ../AHB_agt/AHB_driver.sv(19) @ 63: uvm_test_top.env.AHB_agth[0].drvh [AHB_driver] Data in AHB Driver
---------------------------------------------
Name       Type      Size  Value             
---------------------------------------------
req        AHB_xtn   -     @1795             
  HADDR    integral  32    'h0               
  HWRITE   integral  1     'b0               
  HTRANS   integral  2     'b0               
  HSIZE    integral  3     'd0               
  HBURST   integral  3     'd0               
  HWDATA   integral  64    'h0               
  HBUSREQ  integral  1     'b0               
  HLOCK    integral  1     'b0               
  HREADY   integral  1     'b0               
  HRDATA   integral  64    'haa0c4904f4e9f1dc
  HRESP    integral  1     'b0               
  HGRANT   integral  1     'b0               
  HMASTER  integral  4     'h7               
---------------------------------------------
UVM_INFO ../AXI_agt/AXI_monitor.sv(119) @ 65: uvm_test_top.env.AXI_agth[0].monh [AXI_monitor] AW Channel - WRITE DATA in AXI MONITOR
--------------------------------
Name       Type      Size  Value
--------------------------------
aw_xtn     AXI_xtn   -     @1655
  AWID     integral  8     'd24 
  AWADDR   integral  32    'h7d0
  AWLEN    integral  8     'd1  
  AWSIZE   integral  3     'd3  
  AWBURST  integral  2     2    
  AWVALID  integral  1     'b1  
  AWREADY  integral  1     'b1  
  WID      integral  8     'd0  
  WLAST    integral  1     'b0  
  WVALID   integral  1     'b0  
  WREADY   integral  1     'b0  
  BID      integral  8     'd0  
  BRESP    integral  1     'b0  
  BVALID   integral  1     'b0  
  BREADY   integral  1     'b0  
  ARID     integral  8     'd0  
  ARADDR   integral  32    'd0  
  ARLEN    integral  8     'd0  
  ARSIZE   integral  3     'd0  
  ARBURST  integral  2     'd0  
  ARVALID  integral  1     'b0  
  ARREADY  integral  1     'b0  
  RID      integral  8     'd0  
  RLAST    integral  1     'b0  
  RVALID   integral  1     'b0  
  RREADY   integral  1     'b0  
--------------------------------
UVM_INFO ../tb/scoreboard.sv(123) @ 65: uvm_test_top.env.sbh[0] [scoreboard] got axi data
UVM_INFO ../AXI_agt/AXI_monitor.sv(57) @ 65: uvm_test_top.env.AXI_agth[0].monh [AXI_monitor] AW Channel method ended
UVM_INFO ../AXI_agt/AXI_monitor.sv(65) @ 65: uvm_test_top.env.AXI_agth[0].monh [AXI_monitor] W Channel method started
UVM_INFO ../AXI_agt/AXI_monitor.sv(55) @ 65: uvm_test_top.env.AXI_agth[0].monh [AXI_monitor] AW Channel method started
UVM_INFO ../AXI_agt/AXI_monitor.sv(119) @ 65: uvm_test_top.env.AXI_agth[0].monh [AXI_monitor] AW Channel - WRITE DATA in AXI MONITOR
--------------------------------
Name       Type      Size  Value
--------------------------------
aw_xtn     AXI_xtn   -     @1808
  AWID     integral  8     'd24 
  AWADDR   integral  32    'h7d0
  AWLEN    integral  8     'd1  
  AWSIZE   integral  3     'd3  
  AWBURST  integral  2     2    
  AWVALID  integral  1     'b1  
  AWREADY  integral  1     'b1  
  WID      integral  8     'd0  
  WLAST    integral  1     'b0  
  WVALID   integral  1     'b0  
  WREADY   integral  1     'b0  
  BID      integral  8     'd0  
  BRESP    integral  1     'b0  
  BVALID   integral  1     'b0  
  BREADY   integral  1     'b0  
  ARID     integral  8     'd0  
  ARADDR   integral  32    'd0  
  ARLEN    integral  8     'd0  
  ARSIZE   integral  3     'd0  
  ARBURST  integral  2     'd0  
  ARVALID  integral  1     'b0  
  ARREADY  integral  1     'b0  
  RID      integral  8     'd0  
  RLAST    integral  1     'b0  
  RVALID   integral  1     'b0  
  RREADY   integral  1     'b0  
--------------------------------
UVM_INFO ../tb/scoreboard.sv(123) @ 65: uvm_test_top.env.sbh[0] [scoreboard] got axi data
UVM_INFO ../AXI_agt/AXI_driver.sv(58) @ 75: uvm_test_top.env.AXI_agth[0].drvh [AXI_driver] aw_channel method ended
UVM_INFO ../AXI_agt/AXI_driver.sv(37) @ 75: uvm_test_top.env.AXI_agth[0].drvh [AXI_driver] Data in AXI driver
----------------------------------------------
Name        Type      Size  Value             
----------------------------------------------
req         AXI_xtn   -     @1787             
  AWID      integral  8     'd24              
  AWADDR    integral  32    'h7d0             
  AWLEN     integral  8     'd1               
  AWSIZE    integral  3     'd3               
  AWBURST   integral  2     2                 
  AWVALID   integral  1     'b1               
  AWREADY   integral  1     'b0               
  WID       integral  8     'd24              
  WDATA[0]  integral  64    'hd6f699ce0fb5b5fc
  WDATA[1]  integral  64    'hcd73db9d7df0612 
  WSTRB[0]  integral  8     'b11111111        
  WSTRB[1]  integral  8     'b11111111        
  WLAST     integral  1     'b0               
  WVALID    integral  1     'b1               
  WREADY    integral  1     'b0               
  BID       integral  8     'd0               
  BRESP     integral  1     'b0               
  BVALID    integral  1     'b0               
  BREADY    integral  1     'b1               
  ARID      integral  8     'd99              
  ARADDR    integral  32    'd2000            
  ARLEN     integral  8     'd1               
  ARSIZE    integral  3     'd0               
  ARBURST   integral  2     2                 
  ARVALID   integral  1     'b0               
  ARREADY   integral  1     'b0               
  RID       integral  8     'd0               
  RLAST     integral  1     'b0               
  RVALID    integral  1     'b0               
  RREADY    integral  1     'b0               
----------------------------------------------
UVM_INFO ../AXI_agt/AXI_monitor.sv(57) @ 75: uvm_test_top.env.AXI_agth[0].monh [AXI_monitor] AW Channel method ended
UVM_INFO ../AXI_agt/AXI_driver.sv(66) @ 75: uvm_test_top.env.AXI_agth[0].drvh [AXI_driver] w_channel method started
UVM_INFO ../AXI_agt/AXI_monitor.sv(55) @ 75: uvm_test_top.env.AXI_agth[0].monh [AXI_monitor] AW Channel method started
UVM_INFO ../AHB_agt/AHB_driver.sv(19) @ 77: uvm_test_top.env.AHB_agth[0].drvh [AHB_driver] Data in AHB Driver
---------------------------------------------
Name       Type      Size  Value             
---------------------------------------------
req        AHB_xtn   -     @1795             
  HADDR    integral  32    'h0               
  HWRITE   integral  1     'b0               
  HTRANS   integral  2     'b0               
  HSIZE    integral  3     'd0               
  HBURST   integral  3     'd0               
  HWDATA   integral  64    'h0               
  HBUSREQ  integral  1     'b0               
  HLOCK    integral  1     'b0               
  HREADY   integral  1     'b0               
  HRDATA   integral  64    'h9d7049dd7a859155
  HRESP    integral  1     'b0               
  HGRANT   integral  1     'b1               
  HMASTER  integral  4     'h4               
---------------------------------------------
UVM_INFO ../tb/scoreboard.sv(146) @ 85: uvm_test_top.env.sbh[0] [scoreboard] got data for wdata queue
UVM_INFO ../tb/scoreboard.sv(146) @ 115: uvm_test_top.env.sbh[0] [scoreboard] got data for wdata queue
UVM_INFO ../AXI_agt/AXI_monitor.sv(163) @ 115: uvm_test_top.env.AXI_agth[0].monh [AXI_monitor] W Channel - WRITE DATA in AXI MONITOR
----------------------------------------------
Name        Type      Size  Value             
----------------------------------------------
aw_xtn      AXI_xtn   -     @1655             
  AWID      integral  8     'd24              
  AWADDR    integral  32    'h7d0             
  AWLEN     integral  8     'd1               
  AWSIZE    integral  3     'd3               
  AWBURST   integral  2     2                 
  AWVALID   integral  1     'b1               
  AWREADY   integral  1     'b1               
  WID       integral  8     'd24              
  WDATA[0]  integral  64    'hd6f699ce0fb5b5fc
  WDATA[1]  integral  64    'hcd73db9d7df0612 
  WSTRB[0]  integral  8     'b11111111        
  WSTRB[1]  integral  8     'b11111111        
  WLAST     integral  1     'b1               
  WVALID    integral  1     'b1               
  WREADY    integral  1     'b1               
  BID       integral  8     'd0               
  BRESP     integral  1     'b0               
  BVALID    integral  1     'b0               
  BREADY    integral  1     'b0               
  ARID      integral  8     'd0               
  ARADDR    integral  32    'd0               
  ARLEN     integral  8     'd0               
  ARSIZE    integral  3     'd0               
  ARBURST   integral  2     'd0               
  ARVALID   integral  1     'b0               
  ARREADY   integral  1     'b0               
  RID       integral  8     'd0               
  RLAST     integral  1     'b0               
  RVALID    integral  1     'b0               
  RREADY    integral  1     'b0               
----------------------------------------------
UVM_INFO ../AXI_agt/AXI_monitor.sv(67) @ 115: uvm_test_top.env.AXI_agth[0].monh [AXI_monitor] W Channel method ended
UVM_INFO ../tb/scoreboard.sv(123) @ 115: uvm_test_top.env.sbh[0] [scoreboard] got axi data
UVM_INFO ../AXI_agt/AXI_monitor.sv(75) @ 115: uvm_test_top.env.AXI_agth[0].monh [AXI_monitor] B Channel method started
UVM_INFO ../AXI_agt/AXI_monitor.sv(65) @ 115: uvm_test_top.env.AXI_agth[0].monh [AXI_monitor] W Channel method started
UVM_INFO ../AXI_agt/AXI_driver.sv(68) @ 135: uvm_test_top.env.AXI_agth[0].drvh [AXI_driver] w_channel method ended
UVM_INFO ../AXI_agt/AXI_driver.sv(76) @ 135: uvm_test_top.env.AXI_agth[0].drvh [AXI_driver] b_channel method started
UVM_INFO ../AXI_agt/AXI_driver.sv(140) @ 155: uvm_test_top.env.AXI_agth[0].drvh [AXI_driver] Inside b_channel driving logic - waiting for bvalid
UVM_INFO ../AHB_agt/AHB_monitor.sv(39) @ 175: uvm_test_top.env.AHB_agth[0].monh [AHB_monitor] Monitor Data: 
 "---------------------------------------------
Name       Type      Size  Value             
---------------------------------------------
pend_xtn   AHB_xtn   -     @1833             
  HADDR    integral  32    'h7d0             
  HWRITE   integral  1     'b1               
  HTRANS   integral  2     'b10              
  HSIZE    integral  3     'd3               
  HBURST   integral  3     'd0               
  HWDATA   integral  64    'hd6f699ce0fb5b5fc
  HBUSREQ  integral  1     'b0               
  HLOCK    integral  1     'b0               
  HREADY   integral  1     'b1               
  HRDATA   integral  64    'h0               
  HRESP    integral  1     'b0               
  HGRANT   integral  1     'b0               
  HMASTER  integral  4     'h0               
---------------------------------------------
"
UVM_INFO ../tb/scoreboard.sv(135) @ 175: uvm_test_top.env.sbh[0] [scoreboard] got ahb data
UVM_INFO ../tb/scoreboard.sv(188) @ 175: uvm_test_top.env.sbh[0] [scoreboard] waiting for wdata queue
UVM_INFO ../tb/scoreboard.sv(193) @ 175: uvm_test_top.env.sbh[0] [scoreboard] DATA MATCH :)
UVM_INFO ../tb/scoreboard.sv(194) @ 175: uvm_test_top.env.sbh[0] [scoreboard] axi_wdata = d6f699ce0fb5b5fc, ahb_wdata = d6f699ce0fb5b5fc
UVM_INFO ../AHB_agt/AHB_monitor.sv(39) @ 189: uvm_test_top.env.AHB_agth[0].monh [AHB_monitor] Monitor Data: 
 "--------------------------------------------
Name       Type      Size  Value            
--------------------------------------------
pend_xtn   AHB_xtn   -     @1837            
  HADDR    integral  32    'h7d0            
  HWRITE   integral  1     'b1              
  HTRANS   integral  2     'b10             
  HSIZE    integral  3     'd3              
  HBURST   integral  3     'd0              
  HWDATA   integral  64    'hcd73db9d7df0612
  HBUSREQ  integral  1     'b0              
  HLOCK    integral  1     'b0              
  HREADY   integral  1     'b1              
  HRDATA   integral  64    'h0              
  HRESP    integral  1     'b0              
  HGRANT   integral  1     'b0              
  HMASTER  integral  4     'h0              
--------------------------------------------
"
UVM_INFO ../tb/scoreboard.sv(135) @ 189: uvm_test_top.env.sbh[0] [scoreboard] got ahb data
UVM_INFO ../tb/scoreboard.sv(188) @ 189: uvm_test_top.env.sbh[0] [scoreboard] waiting for wdata queue
UVM_INFO ../tb/scoreboard.sv(193) @ 189: uvm_test_top.env.sbh[0] [scoreboard] DATA MATCH :)
UVM_INFO ../tb/scoreboard.sv(194) @ 189: uvm_test_top.env.sbh[0] [scoreboard] axi_wdata = cd73db9d7df0612, ahb_wdata = cd73db9d7df0612
UVM_INFO /home/cad/eda/SYNOPSYS/vcs_all_vX-2025.06/vcs/X-2025.06/etc/uvm/base/uvm_objection.svh(1274) @ 1091: reporter [TEST_DONE] 'run' phase is ready to proceed to the 'extract' phase

--- UVM Report Summary ---

** Report counts by severity
UVM_INFO :   56
UVM_WARNING :    0
UVM_ERROR :    0
UVM_FATAL :    0
** Report counts by id
[AHB_driver]     3
[AHB_monitor]     2
[AHB_rst_driver]     2
[AHB_rst_monitor]     3
[AXI_driver]     7
[AXI_monitor]    13
[AXI_rst_driver]     2
[AXI_rst_monitor]     3
[RNTST]     1
[TEST_DONE]     1
[UVMTOP]     1
[scoreboard]    18
$finish called from file "/home/cad/eda/SYNOPSYS/vcs_all_vX-2025.06/vcs/X-2025.06/etc/uvm/base/uvm_root.svh", line 437.
$finish at simulation time                 1091
           V C S   S i m u l a t i o n   R e p o r t 
Time: 1091 ns
CPU Time:      0.400 seconds;       Data structure size:   0.8Mb
Mon Aug  3 19:36:43 2026
