Command: vcs -l out.log -timescale=1ns/1ns -sverilog -ntb_opts uvm -debug_access+all \
+incdir+../AXI_agt/ +incdir+../AXI_rst_agt/ +incdir+../AHB_agt/ +incdir+../AHB_rst_agt/ \
+incdir+../tb/ +incdir+../test/ +incdir+../AXI2AHB_RTL/ ../tb/top_pkg.sv ../AXI2AHB_RTL/ahb_interface.sv \
../AXI2AHB_RTL/ahb_rst_interface.sv ../AXI2AHB_RTL/axi_interface.sv ../AXI2AHB_RTL/axi_rst_interface.sv \
../tb/top.sv ../AXI2AHB_RTL/addr_fifo.v ../AXI2AHB_RTL/ahb_controller.v ../AXI2AHB_RTL/axi2ahb_bridge_top.v \
../AXI2AHB_RTL/axi2fifo.v ../AXI2AHB_RTL/axi_controller.v ../AXI2AHB_RTL/data_fifo.v \
../AXI2AHB_RTL/fifo2axi.v ../AXI2AHB_RTL/fifo_wrapper.v ../AXI2AHB_RTL/id_resp_fifo.v \
../AXI2AHB_RTL/id_send_fifo.v ../AXI2AHB_RTL/rdata_fifo.v ../AXI2AHB_RTL/resp_fifo.v \
../AXI2AHB_RTL/size_fifo.v ../AXI2AHB_RTL/write_fifo.v
                         Chronologic VCS (TM)
         Version X-2025.06_Full64 -- Mon Aug  3 19:42:08 2026

                    Copyright (c) 1991 - 2025 Synopsys, Inc.
   This software and the associated documentation are proprietary to Synopsys,
 Inc. This software may only be used in accordance with the terms and conditions
 of a written license agreement with Synopsys, Inc. All other use, reproduction,
   or distribution of this software is strictly prohibited.  Licensed Products
     communicate with Synopsys servers for the purpose of providing software
    updates, detecting software piracy and verifying that customers are using
    Licensed Products in conformity with the applicable License Key for such
  Licensed Products. Synopsys will use information gathered in connection with
    this process to deliver software updates and pursue software pirates and
                                   infringers.

 Inclusivity & Diversity - Visit SolvNetPlus to read the "Synopsys Statement on
            Inclusivity and Diversity" (Refer to article 000036315 at
                        https://solvnetplus.synopsys.com)

The design hasn't changed and need not be recompiled. 
If you really want to, delete file simv.daidir/.vcs.timestamp and
run VCS again.

Command: /home2/B126/AKSSolomon/VLSI_RN_OFFLINE/AXI2AHB_Bridge/sim/./simv -a out.log +UVM_TESTNAME=AXI_write_increment_test +fsdbfile+axiahb.fsdb +ntb_random_seed_automatic -cm_dir ./axiincrement_data
Chronologic VCS simulator copyright 1991-2025
Contains Synopsys proprietary information.
Compiler version X-2025.06_Full64; Runtime version X-2025.06_Full64;  Aug  3 19:42 2026
NOTE: automatic random seed used: 3191159464
----------------------------------------------------------------
UVM-1.1d.Synopsys
(C) 2007-2013 Mentor Graphics Corporation
(C) 2007-2013 Cadence Design Systems, Inc.
(C) 2006-2013 Synopsys, Inc.
(C) 2011-2013 Cypress Semiconductor Corp.
----------------------------------------------------------------

  ***********       IMPORTANT RELEASE NOTES         ************

  You are using a version of the UVM library that has been compiled
  with `UVM_NO_DEPRECATED undefined.
  See http://www.eda.org/svdb/view.php?id=3313 for more details.

  You are using a version of the UVM library that has been compiled
  with `UVM_OBJECT_MUST_HAVE_CONSTRUCTOR undefined.
  See http://www.eda.org/svdb/view.php?id=3770 for more details.

      (Specify +UVM_NO_RELNOTES to turn off this notice)

UVM_INFO @ 0: reporter [RNTST] Running test AXI_write_increment_test...
*Verdi* Loading libsscore_vcs202506.so
FSDB Dumper for VCS, Release Verdi_X-2025.06, Linux x86_64/64bit, 05/31/2025
(C) 1996 - 2025 by Synopsys, Inc.
*Verdi* WARNING: Env/runtime option has specified fsdbfile name as "axiahb.fsdb". Fsdbfile name in task "wave.fsdb" is ignored.
*Verdi* FSDB WARNING: The FSDB file already exists. Overwriting the FSDB file may crash the programs that are using this file.
*Verdi* : Create FSDB file 'axiahb.fsdb'
*Verdi* : Begin traversing the scope (top), layer (0).
*Verdi* : End of traversing.
UVM_INFO @ 0: reporter [UVMTOP] UVM testbench topology:
-------------------------------------------------------------------
Name                        Type                        Size  Value
-------------------------------------------------------------------
uvm_test_top                AXI_write_increment_test    -     @483 
  env                       env                         -     @496 
    AHB_agth[0]             AHB_agent                   -     @870 
      drvh                  AHB_driver                  -     @918 
        rsp_port            uvm_analysis_port           -     @935 
        seq_item_port       uvm_seq_item_pull_port      -     @926 
      monh                  AHB_monitor                 -     @898 
        AHB_mon_port        uvm_analysis_port           -     @906 
      seqrh                 AHB_sequencer               -     @944 
        rsp_export          uvm_analysis_export         -     @952 
        seq_item_export     uvm_seq_item_pull_imp       -     @1058
        arbitration_queue   array                       0     -    
        lock_queue          array                       0     -    
        num_last_reqs       integral                    32    'd1  
        num_last_rsps       integral                    32    'd1  
    AHB_rst_agth[0]         AHB_rst_agent               -     @885 
      drvh                  AHB_rst_driver              -     @1098
        rsp_port            uvm_analysis_port           -     @1115
        seq_item_port       uvm_seq_item_pull_port      -     @1106
      monh                  AHB_rst_monitor             -     @1079
        AHB_rst_mon_port    uvm_analysis_port           -     @1087
      seqrh                 AHB_rst_sequencer           -     @1124
        rsp_export          uvm_analysis_export         -     @1132
        seq_item_export     uvm_seq_item_pull_imp       -     @1238
        arbitration_queue   array                       0     -    
        lock_queue          array                       0     -    
        num_last_reqs       integral                    32    'd1  
        num_last_rsps       integral                    32    'd1  
    AXI_agth[0]             AXI_agent                   -     @841 
      drvh                  AXI_driver                  -     @1299
        rsp_port            uvm_analysis_port           -     @1316
        seq_item_port       uvm_seq_item_pull_port      -     @1307
      monh                  AXI_monitor                 -     @1263
        AXI_mon_port        uvm_analysis_port           -     @1271
        AXI_rdata_mon_port  uvm_analysis_port           -     @1289
        AXI_wdata_mon_port  uvm_analysis_port           -     @1280
      seqrh                 AXI_sequencer               -     @1325
        rsp_export          uvm_analysis_export         -     @1333
        seq_item_export     uvm_seq_item_pull_imp       -     @1439
        arbitration_queue   array                       0     -    
        lock_queue          array                       0     -    
        num_last_reqs       integral                    32    'd1  
        num_last_rsps       integral                    32    'd1  
    AXI_rst_agth[0]         AXI_rst_agent               -     @856 
      drvh                  AXI_rst_driver              -     @1478
        rsp_port            uvm_analysis_port           -     @1495
        seq_item_port       uvm_seq_item_pull_port      -     @1486
      monh                  AXI_rst_monitor             -     @1460
        AXI_rst_mon_port    uvm_analysis_port           -     @1468
      seqrh                 AXI_rst_sequencer           -     @1504
        rsp_export          uvm_analysis_export         -     @1512
        seq_item_export     uvm_seq_item_pull_imp       -     @1618
        arbitration_queue   array                       0     -    
        lock_queue          array                       0     -    
        num_last_reqs       integral                    32    'd1  
        num_last_rsps       integral                    32    'd1  
    sbh[0]                  scoreboard                  -     @509 
      AHB_fifoh             uvm_tlm_analysis_fifo #(T)  -     @623 
        analysis_export     uvm_analysis_imp            -     @667 
        get_ap              uvm_analysis_port           -     @658 
        get_peek_export     uvm_get_peek_imp            -     @640 
        put_ap              uvm_analysis_port           -     @649 
        put_export          uvm_put_imp                 -     @631 
      AHB_rst_fifoh         uvm_tlm_analysis_fifo #(T)  -     @676 
        analysis_export     uvm_analysis_imp            -     @720 
        get_ap              uvm_analysis_port           -     @711 
        get_peek_export     uvm_get_peek_imp            -     @693 
        put_ap              uvm_analysis_port           -     @702 
        put_export          uvm_put_imp                 -     @684 
      AXI_fifoh             uvm_tlm_analysis_fifo #(T)  -     @517 
        analysis_export     uvm_analysis_imp            -     @561 
        get_ap              uvm_analysis_port           -     @552 
        get_peek_export     uvm_get_peek_imp            -     @534 
        put_ap              uvm_analysis_port           -     @543 
        put_export          uvm_put_imp                 -     @525 
      AXI_rdata_fifoh       uvm_tlm_analysis_fifo #(T)  -     @782 
        analysis_export     uvm_analysis_imp            -     @826 
        get_ap              uvm_analysis_port           -     @817 
        get_peek_export     uvm_get_peek_imp            -     @799 
        put_ap              uvm_analysis_port           -     @808 
        put_export          uvm_put_imp                 -     @790 
      AXI_rst_fifoh         uvm_tlm_analysis_fifo #(T)  -     @570 
        analysis_export     uvm_analysis_imp            -     @614 
        get_ap              uvm_analysis_port           -     @605 
        get_peek_export     uvm_get_peek_imp            -     @587 
        put_ap              uvm_analysis_port           -     @596 
        put_export          uvm_put_imp                 -     @578 
      AXI_wdata_fifoh       uvm_tlm_analysis_fifo #(T)  -     @729 
        analysis_export     uvm_analysis_imp            -     @773 
        get_ap              uvm_analysis_port           -     @764 
        get_peek_export     uvm_get_peek_imp            -     @746 
        put_ap              uvm_analysis_port           -     @755 
        put_export          uvm_put_imp                 -     @737 
-------------------------------------------------------------------

UVM_INFO ../AXI_agt/AXI_monitor.sv(55) @ 0: uvm_test_top.env.AXI_agth[0].monh [AXI_monitor] AW Channel method started
UVM_INFO ../AXI_agt/AXI_monitor.sv(83) @ 0: uvm_test_top.env.AXI_agth[0].monh [AXI_monitor] AR Channel method started
UVM_INFO ../tb/scoreboard.sv(123) @ 0: uvm_test_top.env.sbh[0] [scoreboard] got axi data
UVM_INFO ../AXI_rst_agt/AXI_rst_driver.sv(18) @ 0: uvm_test_top.env.AXI_rst_agth[0].drvh [AXI_rst_driver] Data in driver
-----------------------------------
Name       Type         Size  Value
-----------------------------------
req        AXI_rst_xtn  -     @1665
  ARESETn  integral     1     'b0  
  BVALID   integral     1     'bx  
  RVALID   integral     1     'bx  
-----------------------------------
UVM_INFO ../AHB_rst_agt/AHB_rst_driver.sv(22) @ 0: uvm_test_top.env.AHB_rst_agth[0].drvh [AHB_rst_driver] Data in AHB_rst_driver
-----------------------------------
Name       Type         Size  Value
-----------------------------------
req        AHB_rst_xtn  -     @1669
  HRESETn  integral     1     'b0  
  HREADY   integral     1     'b0  
  HTRANS   integral     2     'bxx 
-----------------------------------
UVM_INFO ../AXI_rst_agt/AXI_rst_monitor.sv(38) @ 15: uvm_test_top.env.AXI_rst_agth[0].monh [AXI_rst_monitor] Data in AXI RST MONITOR
-----------------------------------
Name       Type         Size  Value
-----------------------------------
xtn        AXI_rst_xtn  -     @1641
  ARESETn  integral     1     'b0  
  BVALID   integral     1     'b0  
  RVALID   integral     1     'b0  
-----------------------------------
UVM_INFO ../tb/scoreboard.sv(161) @ 15: uvm_test_top.env.sbh[0] [scoreboard] AXI rst GOOD
UVM_INFO ../AXI_rst_agt/AXI_rst_driver.sv(18) @ 15: uvm_test_top.env.AXI_rst_agth[0].drvh [AXI_rst_driver] Data in driver
-----------------------------------
Name       Type         Size  Value
-----------------------------------
req        AXI_rst_xtn  -     @1665
  ARESETn  integral     1     'b1  
  BVALID   integral     1     'bx  
  RVALID   integral     1     'bx  
-----------------------------------
UVM_INFO ../AHB_rst_agt/AHB_rst_monitor.sv(37) @ 21: uvm_test_top.env.AHB_rst_agth[0].monh [AHB_rst_monitor] Data in AHB RST MONITOR
-----------------------------------
Name       Type         Size  Value
-----------------------------------
xtn        AHB_rst_xtn  -     @1251
  HRESETn  integral     1     'b0  
  HREADY   integral     1     'b0  
  HTRANS   integral     2     'b0  
-----------------------------------
UVM_INFO ../tb/scoreboard.sv(171) @ 21: uvm_test_top.env.sbh[0] [scoreboard] AHB rst GOOD
UVM_INFO ../AHB_rst_agt/AHB_rst_driver.sv(22) @ 21: uvm_test_top.env.AHB_rst_agth[0].drvh [AHB_rst_driver] Data in AHB_rst_driver
-----------------------------------
Name       Type         Size  Value
-----------------------------------
req        AHB_rst_xtn  -     @1669
  HRESETn  integral     1     'b1  
  HREADY   integral     1     'b0  
  HTRANS   integral     2     'bxx 
-----------------------------------
UVM_INFO ../AXI_rst_agt/AXI_rst_monitor.sv(38) @ 25: uvm_test_top.env.AXI_rst_agth[0].monh [AXI_rst_monitor] Data in AXI RST MONITOR
-----------------------------------
Name       Type         Size  Value
-----------------------------------
xtn        AXI_rst_xtn  -     @1769
  ARESETn  integral     1     'b0  
  BVALID   integral     1     'b0  
  RVALID   integral     1     'b0  
-----------------------------------
UVM_INFO ../tb/scoreboard.sv(161) @ 25: uvm_test_top.env.sbh[0] [scoreboard] AXI rst GOOD
UVM_INFO ../AXI_rst_agt/AXI_rst_monitor.sv(38) @ 35: uvm_test_top.env.AXI_rst_agth[0].monh [AXI_rst_monitor] Data in AXI RST MONITOR
-----------------------------------
Name       Type         Size  Value
-----------------------------------
xtn        AXI_rst_xtn  -     @1775
  ARESETn  integral     1     'b1  
  BVALID   integral     1     'b0  
  RVALID   integral     1     'b0  
-----------------------------------
UVM_INFO ../AHB_rst_agt/AHB_rst_monitor.sv(37) @ 35: uvm_test_top.env.AHB_rst_agth[0].monh [AHB_rst_monitor] Data in AHB RST MONITOR
-----------------------------------
Name       Type         Size  Value
-----------------------------------
xtn        AHB_rst_xtn  -     @1251
  HRESETn  integral     1     'b0  
  HREADY   integral     1     'b0  
  HTRANS   integral     2     'b0  
-----------------------------------
UVM_INFO ../tb/scoreboard.sv(171) @ 35: uvm_test_top.env.sbh[0] [scoreboard] AHB rst GOOD
UVM_INFO ../AHB_rst_agt/AHB_rst_monitor.sv(37) @ 49: uvm_test_top.env.AHB_rst_agth[0].monh [AHB_rst_monitor] Data in AHB RST MONITOR
-----------------------------------
Name       Type         Size  Value
-----------------------------------
xtn        AHB_rst_xtn  -     @1251
  HRESETn  integral     1     'b1  
  HREADY   integral     1     'b0  
  HTRANS   integral     2     'b0  
-----------------------------------
UVM_INFO ../AHB_agt/AHB_driver.sv(19) @ 49: uvm_test_top.env.AHB_agth[0].drvh [AHB_driver] Data in AHB Driver
---------------------------------------------
Name       Type      Size  Value             
---------------------------------------------
req        AHB_xtn   -     @1795             
  HADDR    integral  32    'h0               
  HWRITE   integral  1     'b0               
  HTRANS   integral  2     'b0               
  HSIZE    integral  3     'd0               
  HBURST   integral  3     'd0               
  HWDATA   integral  64    'h0               
  HBUSREQ  integral  1     'b0               
  HLOCK    integral  1     'b0               
  HREADY   integral  1     'b1               
  HRDATA   integral  64    'h9578f4e7f6627958
  HRESP    integral  1     'b0               
  HGRANT   integral  1     'b0               
  HMASTER  integral  4     'h2               
---------------------------------------------
UVM_INFO ../AXI_agt/AXI_driver.sv(56) @ 49: uvm_test_top.env.AXI_agth[0].drvh [AXI_driver] aw_channel method started
UVM_INFO ../AHB_agt/AHB_driver.sv(19) @ 63: uvm_test_top.env.AHB_agth[0].drvh [AHB_driver] Data in AHB Driver
---------------------------------------------
Name       Type      Size  Value             
---------------------------------------------
req        AHB_xtn   -     @1795             
  HADDR    integral  32    'h0               
  HWRITE   integral  1     'b0               
  HTRANS   integral  2     'b0               
  HSIZE    integral  3     'd0               
  HBURST   integral  3     'd0               
  HWDATA   integral  64    'h0               
  HBUSREQ  integral  1     'b0               
  HLOCK    integral  1     'b0               
  HREADY   integral  1     'b1               
  HRDATA   integral  64    'h9d8fa47da3c47525
  HRESP    integral  1     'b1               
  HGRANT   integral  1     'b1               
  HMASTER  integral  4     'h8               
---------------------------------------------
UVM_INFO ../AXI_agt/AXI_monitor.sv(119) @ 65: uvm_test_top.env.AXI_agth[0].monh [AXI_monitor] AW Channel - WRITE DATA in AXI MONITOR
-------------------------------------
Name       Type      Size  Value     
-------------------------------------
aw_xtn     AXI_xtn   -     @1655     
  AWID     integral  8     236       
  AWADDR   integral  32    'h109450d3
  AWLEN    integral  8     'd5       
  AWSIZE   integral  3     'd2       
  AWBURST  integral  2     'd1       
  AWVALID  integral  1     'b1       
  AWREADY  integral  1     'b1       
  WID      integral  8     'd0       
  WLAST    integral  1     'b0       
  WVALID   integral  1     'b0       
  WREADY   integral  1     'b0       
  BID      integral  8     'd0       
  BRESP    integral  1     'b0       
  BVALID   integral  1     'b0       
  BREADY   integral  1     'b0       
  ARID     integral  8     'd0       
  ARADDR   integral  32    'd0       
  ARLEN    integral  8     'd0       
  ARSIZE   integral  3     'd0       
  ARBURST  integral  2     'd0       
  ARVALID  integral  1     'b0       
  ARREADY  integral  1     'b0       
  RID      integral  8     'd0       
  RLAST    integral  1     'b0       
  RVALID   integral  1     'b0       
  RREADY   integral  1     'b0       
-------------------------------------
UVM_INFO ../tb/scoreboard.sv(123) @ 65: uvm_test_top.env.sbh[0] [scoreboard] got axi data
UVM_INFO ../AXI_agt/AXI_monitor.sv(57) @ 65: uvm_test_top.env.AXI_agth[0].monh [AXI_monitor] AW Channel method ended
UVM_INFO ../AXI_agt/AXI_monitor.sv(65) @ 65: uvm_test_top.env.AXI_agth[0].monh [AXI_monitor] W Channel method started
UVM_INFO ../AXI_agt/AXI_monitor.sv(55) @ 65: uvm_test_top.env.AXI_agth[0].monh [AXI_monitor] AW Channel method started
UVM_INFO ../AXI_agt/AXI_monitor.sv(119) @ 65: uvm_test_top.env.AXI_agth[0].monh [AXI_monitor] AW Channel - WRITE DATA in AXI MONITOR
-------------------------------------
Name       Type      Size  Value     
-------------------------------------
aw_xtn     AXI_xtn   -     @1808     
  AWID     integral  8     236       
  AWADDR   integral  32    'h109450d3
  AWLEN    integral  8     'd5       
  AWSIZE   integral  3     'd2       
  AWBURST  integral  2     'd1       
  AWVALID  integral  1     'b1       
  AWREADY  integral  1     'b1       
  WID      integral  8     'd0       
  WLAST    integral  1     'b0       
  WVALID   integral  1     'b0       
  WREADY   integral  1     'b0       
  BID      integral  8     'd0       
  BRESP    integral  1     'b0       
  BVALID   integral  1     'b0       
  BREADY   integral  1     'b0       
  ARID     integral  8     'd0       
  ARADDR   integral  32    'd0       
  ARLEN    integral  8     'd0       
  ARSIZE   integral  3     'd0       
  ARBURST  integral  2     'd0       
  ARVALID  integral  1     'b0       
  ARREADY  integral  1     'b0       
  RID      integral  8     'd0       
  RLAST    integral  1     'b0       
  RVALID   integral  1     'b0       
  RREADY   integral  1     'b0       
-------------------------------------
UVM_INFO ../tb/scoreboard.sv(123) @ 65: uvm_test_top.env.sbh[0] [scoreboard] got axi data
UVM_INFO ../AXI_agt/AXI_driver.sv(58) @ 75: uvm_test_top.env.AXI_agth[0].drvh [AXI_driver] aw_channel method ended
UVM_INFO ../AXI_agt/AXI_driver.sv(37) @ 75: uvm_test_top.env.AXI_agth[0].drvh [AXI_driver] Data in AXI driver
----------------------------------------------
Name        Type      Size  Value             
----------------------------------------------
req         AXI_xtn   -     @1787             
  AWID      integral  8     236               
  AWADDR    integral  32    'h109450d3        
  AWLEN     integral  8     'd5               
  AWSIZE    integral  3     'd2               
  AWBURST   integral  2     'd1               
  AWVALID   integral  1     'b1               
  AWREADY   integral  1     'b0               
  WID       integral  8     236               
  WDATA[0]  integral  64    'h11f627aeceef5a74
  WDATA[1]  integral  64    'hce4cf1beefcba692
  WDATA[2]  integral  64    'h3d61d795ea3c0146
  WDATA[3]  integral  64    'h925fbbf2e1383871
  WDATA[4]  integral  64    'haac49d14155abf05
  WDATA[5]  integral  64    'h97f626075faf156b
  WSTRB[0]  integral  8     'b1000            
  WSTRB[1]  integral  8     'b11110000        
  WSTRB[2]  integral  8     'b1111            
  WSTRB[3]  integral  8     'b11110000        
  WSTRB[4]  integral  8     'b1111            
  WSTRB[5]  integral  8     'b11110000        
  WLAST     integral  1     'b0               
  WVALID    integral  1     'b1               
  WREADY    integral  1     'b0               
  BID       integral  8     'd0               
  BRESP     integral  1     'b0               
  BVALID    integral  1     'b0               
  BREADY    integral  1     'b1               
  ARID      integral  8     'd111             
  ARADDR    integral  32    'd1578037895      
  ARLEN     integral  8     174               
  ARSIZE    integral  3     'd0               
  ARBURST   integral  2     2                 
  ARVALID   integral  1     'b0               
  ARREADY   integral  1     'b0               
  RID       integral  8     'd0               
  RLAST     integral  1     'b0               
  RVALID    integral  1     'b0               
  RREADY    integral  1     'b0               
----------------------------------------------
UVM_INFO ../AXI_agt/AXI_monitor.sv(57) @ 75: uvm_test_top.env.AXI_agth[0].monh [AXI_monitor] AW Channel method ended
UVM_INFO ../AXI_agt/AXI_driver.sv(66) @ 75: uvm_test_top.env.AXI_agth[0].drvh [AXI_driver] w_channel method started
UVM_INFO ../AXI_agt/AXI_monitor.sv(55) @ 75: uvm_test_top.env.AXI_agth[0].monh [AXI_monitor] AW Channel method started
UVM_INFO ../AHB_agt/AHB_driver.sv(19) @ 77: uvm_test_top.env.AHB_agth[0].drvh [AHB_driver] Data in AHB Driver
---------------------------------------------
Name       Type      Size  Value             
---------------------------------------------
req        AHB_xtn   -     @1795             
  HADDR    integral  32    'h0               
  HWRITE   integral  1     'b0               
  HTRANS   integral  2     'b0               
  HSIZE    integral  3     'd0               
  HBURST   integral  3     'd0               
  HWDATA   integral  64    'h0               
  HBUSREQ  integral  1     'b0               
  HLOCK    integral  1     'b0               
  HREADY   integral  1     'b0               
  HRDATA   integral  64    'hb8a22bc25a379ca2
  HRESP    integral  1     'b1               
  HGRANT   integral  1     'b0               
  HMASTER  integral  4     'h3               
---------------------------------------------
UVM_INFO ../tb/scoreboard.sv(146) @ 85: uvm_test_top.env.sbh[0] [scoreboard] got data for wdata queue
UVM_INFO ../AHB_agt/AHB_driver.sv(19) @ 91: uvm_test_top.env.AHB_agth[0].drvh [AHB_driver] Data in AHB Driver
---------------------------------------------
Name       Type      Size  Value             
---------------------------------------------
req        AHB_xtn   -     @1795             
  HADDR    integral  32    'h0               
  HWRITE   integral  1     'b0               
  HTRANS   integral  2     'b0               
  HSIZE    integral  3     'd0               
  HBURST   integral  3     'd0               
  HWDATA   integral  64    'h0               
  HBUSREQ  integral  1     'b0               
  HLOCK    integral  1     'b0               
  HREADY   integral  1     'b1               
  HRDATA   integral  64    'h2410cf67dd571a74
  HRESP    integral  1     'b0               
  HGRANT   integral  1     'b0               
  HMASTER  integral  4     'h4               
---------------------------------------------
UVM_INFO ../AHB_agt/AHB_driver.sv(19) @ 105: uvm_test_top.env.AHB_agth[0].drvh [AHB_driver] Data in AHB Driver
--------------------------------------------
Name       Type      Size  Value            
--------------------------------------------
req        AHB_xtn   -     @1795            
  HADDR    integral  32    'h0              
  HWRITE   integral  1     'b0              
  HTRANS   integral  2     'b0              
  HSIZE    integral  3     'd0              
  HBURST   integral  3     'd0              
  HWDATA   integral  64    'h0              
  HBUSREQ  integral  1     'b0              
  HLOCK    integral  1     'b0              
  HREADY   integral  1     'b0              
  HRDATA   integral  64    'ha3b782acba168b4
  HRESP    integral  1     'b1              
  HGRANT   integral  1     'b0              
  HMASTER  integral  4     'he              
--------------------------------------------
UVM_INFO ../tb/scoreboard.sv(146) @ 115: uvm_test_top.env.sbh[0] [scoreboard] got data for wdata queue
UVM_INFO ../AHB_agt/AHB_driver.sv(19) @ 119: uvm_test_top.env.AHB_agth[0].drvh [AHB_driver] Data in AHB Driver
---------------------------------------------
Name       Type      Size  Value             
---------------------------------------------
req        AHB_xtn   -     @1795             
  HADDR    integral  32    'h0               
  HWRITE   integral  1     'b0               
  HTRANS   integral  2     'b0               
  HSIZE    integral  3     'd0               
  HBURST   integral  3     'd0               
  HWDATA   integral  64    'h0               
  HBUSREQ  integral  1     'b0               
  HLOCK    integral  1     'b0               
  HREADY   integral  1     'b0               
  HRDATA   integral  64    'he400bcbafd9388f8
  HRESP    integral  1     'b1               
  HGRANT   integral  1     'b1               
  HMASTER  integral  4     'h6               
---------------------------------------------
UVM_INFO ../AHB_agt/AHB_driver.sv(19) @ 133: uvm_test_top.env.AHB_agth[0].drvh [AHB_driver] Data in AHB Driver
---------------------------------------------
Name       Type      Size  Value             
---------------------------------------------
req        AHB_xtn   -     @1795             
  HADDR    integral  32    'h0               
  HWRITE   integral  1     'b0               
  HTRANS   integral  2     'b0               
  HSIZE    integral  3     'd0               
  HBURST   integral  3     'd0               
  HWDATA   integral  64    'h0               
  HBUSREQ  integral  1     'b0               
  HLOCK    integral  1     'b0               
  HREADY   integral  1     'b0               
  HRDATA   integral  64    'hbeec6294f173392b
  HRESP    integral  1     'b0               
  HGRANT   integral  1     'b0               
  HMASTER  integral  4     'h8               
---------------------------------------------
UVM_INFO ../tb/scoreboard.sv(146) @ 145: uvm_test_top.env.sbh[0] [scoreboard] got data for wdata queue
UVM_INFO ../AHB_agt/AHB_driver.sv(19) @ 147: uvm_test_top.env.AHB_agth[0].drvh [AHB_driver] Data in AHB Driver
---------------------------------------------
Name       Type      Size  Value             
---------------------------------------------
req        AHB_xtn   -     @1795             
  HADDR    integral  32    'h0               
  HWRITE   integral  1     'b0               
  HTRANS   integral  2     'b0               
  HSIZE    integral  3     'd0               
  HBURST   integral  3     'd0               
  HWDATA   integral  64    'h0               
  HBUSREQ  integral  1     'b0               
  HLOCK    integral  1     'b0               
  HREADY   integral  1     'b1               
  HRDATA   integral  64    'hf3550067c447d0cf
  HRESP    integral  1     'b1               
  HGRANT   integral  1     'b1               
  HMASTER  integral  4     'h1               
---------------------------------------------
UVM_INFO ../AHB_agt/AHB_driver.sv(19) @ 161: uvm_test_top.env.AHB_agth[0].drvh [AHB_driver] Data in AHB Driver
---------------------------------------------
Name       Type      Size  Value             
---------------------------------------------
req        AHB_xtn   -     @1795             
  HADDR    integral  32    'h0               
  HWRITE   integral  1     'b0               
  HTRANS   integral  2     'b0               
  HSIZE    integral  3     'd0               
  HBURST   integral  3     'd0               
  HWDATA   integral  64    'h0               
  HBUSREQ  integral  1     'b0               
  HLOCK    integral  1     'b0               
  HREADY   integral  1     'b0               
  HRDATA   integral  64    'hd2c3f5e048be3e29
  HRESP    integral  1     'b0               
  HGRANT   integral  1     'b1               
  HMASTER  integral  4     'h3               
---------------------------------------------
UVM_INFO ../tb/scoreboard.sv(146) @ 175: uvm_test_top.env.sbh[0] [scoreboard] got data for wdata queue
UVM_INFO ../AHB_agt/AHB_monitor.sv(39) @ 175: uvm_test_top.env.AHB_agth[0].monh [AHB_monitor] Monitor Data: 
 "-------------------------------------
Name       Type      Size  Value     
-------------------------------------
pend_xtn   AHB_xtn   -     @1829     
  HADDR    integral  32    'h109450d3
  HWRITE   integral  1     'b1       
  HTRANS   integral  2     'b10      
  HSIZE    integral  3     'd2       
  HBURST   integral  3     'd0       
  HWDATA   integral  64    'hce000000
  HBUSREQ  integral  1     'b0       
  HLOCK    integral  1     'b0       
  HREADY   integral  1     'b1       
  HRDATA   integral  64    'h0       
  HRESP    integral  1     'b0       
  HGRANT   integral  1     'b0       
  HMASTER  integral  4     'h0       
-------------------------------------
"
UVM_INFO ../tb/scoreboard.sv(135) @ 175: uvm_test_top.env.sbh[0] [scoreboard] got ahb data
UVM_INFO ../tb/scoreboard.sv(188) @ 175: uvm_test_top.env.sbh[0] [scoreboard] waiting for wdata queue
UVM_INFO ../tb/scoreboard.sv(193) @ 175: uvm_test_top.env.sbh[0] [scoreboard] DATA MATCH :)
UVM_INFO ../tb/scoreboard.sv(194) @ 175: uvm_test_top.env.sbh[0] [scoreboard] axi_wdata = ce000000, ahb_wdata = ce000000
UVM_INFO ../AHB_agt/AHB_driver.sv(19) @ 175: uvm_test_top.env.AHB_agth[0].drvh [AHB_driver] Data in AHB Driver
---------------------------------------------
Name       Type      Size  Value             
---------------------------------------------
req        AHB_xtn   -     @1795             
  HADDR    integral  32    'h0               
  HWRITE   integral  1     'b0               
  HTRANS   integral  2     'b0               
  HSIZE    integral  3     'd0               
  HBURST   integral  3     'd0               
  HWDATA   integral  64    'h0               
  HBUSREQ  integral  1     'b0               
  HLOCK    integral  1     'b0               
  HREADY   integral  1     'b1               
  HRDATA   integral  64    'hc19f2558f7b2d218
  HRESP    integral  1     'b1               
  HGRANT   integral  1     'b1               
  HMASTER  integral  4     'h6               
---------------------------------------------
UVM_INFO ../AHB_agt/AHB_monitor.sv(39) @ 189: uvm_test_top.env.AHB_agth[0].monh [AHB_monitor] Monitor Data: 
 "---------------------------------------------
Name       Type      Size  Value             
---------------------------------------------
pend_xtn   AHB_xtn   -     @1837             
  HADDR    integral  32    'h109450d3        
  HWRITE   integral  1     'b1               
  HTRANS   integral  2     'b10              
  HSIZE    integral  3     'd2               
  HBURST   integral  3     'd0               
  HWDATA   integral  64    'hce4cf1be00000000
  HBUSREQ  integral  1     'b0               
  HLOCK    integral  1     'b0               
  HREADY   integral  1     'b1               
  HRDATA   integral  64    'h0               
  HRESP    integral  1     'b0               
  HGRANT   integral  1     'b0               
  HMASTER  integral  4     'h0               
---------------------------------------------
"
UVM_INFO ../tb/scoreboard.sv(135) @ 189: uvm_test_top.env.sbh[0] [scoreboard] got ahb data
UVM_INFO ../tb/scoreboard.sv(188) @ 189: uvm_test_top.env.sbh[0] [scoreboard] waiting for wdata queue
UVM_INFO ../tb/scoreboard.sv(193) @ 189: uvm_test_top.env.sbh[0] [scoreboard] DATA MATCH :)
UVM_INFO ../tb/scoreboard.sv(194) @ 189: uvm_test_top.env.sbh[0] [scoreboard] axi_wdata = ce4cf1be00000000, ahb_wdata = ce4cf1be00000000
UVM_INFO ../AHB_agt/AHB_driver.sv(19) @ 189: uvm_test_top.env.AHB_agth[0].drvh [AHB_driver] Data in AHB Driver
--------------------------------------------
Name       Type      Size  Value            
--------------------------------------------
req        AHB_xtn   -     @1795            
  HADDR    integral  32    'h0              
  HWRITE   integral  1     'b0              
  HTRANS   integral  2     'b0              
  HSIZE    integral  3     'd0              
  HBURST   integral  3     'd0              
  HWDATA   integral  64    'h0              
  HBUSREQ  integral  1     'b0              
  HLOCK    integral  1     'b0              
  HREADY   integral  1     'b1              
  HRDATA   integral  64    'h9ac560c6b496887
  HRESP    integral  1     'b0              
  HGRANT   integral  1     'b0              
  HMASTER  integral  4     'hf              
--------------------------------------------
UVM_INFO ../AHB_agt/AHB_monitor.sv(39) @ 203: uvm_test_top.env.AHB_agth[0].monh [AHB_monitor] Monitor Data: 
 "-------------------------------------
Name       Type      Size  Value     
-------------------------------------
pend_xtn   AHB_xtn   -     @1841     
  HADDR    integral  32    'h109450d7
  HWRITE   integral  1     'b1       
  HTRANS   integral  2     'b10      
  HSIZE    integral  3     'd2       
  HBURST   integral  3     'd0       
  HWDATA   integral  64    'hea3c0146
  HBUSREQ  integral  1     'b0       
  HLOCK    integral  1     'b0       
  HREADY   integral  1     'b1       
  HRDATA   integral  64    'h0       
  HRESP    integral  1     'b0       
  HGRANT   integral  1     'b0       
  HMASTER  integral  4     'h0       
-------------------------------------
"
UVM_INFO ../tb/scoreboard.sv(135) @ 203: uvm_test_top.env.sbh[0] [scoreboard] got ahb data
UVM_INFO ../tb/scoreboard.sv(188) @ 203: uvm_test_top.env.sbh[0] [scoreboard] waiting for wdata queue
UVM_INFO ../tb/scoreboard.sv(193) @ 203: uvm_test_top.env.sbh[0] [scoreboard] DATA MATCH :)
UVM_INFO ../tb/scoreboard.sv(194) @ 203: uvm_test_top.env.sbh[0] [scoreboard] axi_wdata = ea3c0146, ahb_wdata = ea3c0146
UVM_INFO ../tb/scoreboard.sv(146) @ 205: uvm_test_top.env.sbh[0] [scoreboard] got data for wdata queue
UVM_INFO ../tb/scoreboard.sv(146) @ 235: uvm_test_top.env.sbh[0] [scoreboard] got data for wdata queue
UVM_INFO ../AXI_agt/AXI_monitor.sv(163) @ 235: uvm_test_top.env.AXI_agth[0].monh [AXI_monitor] W Channel - WRITE DATA in AXI MONITOR
----------------------------------------------
Name        Type      Size  Value             
----------------------------------------------
aw_xtn      AXI_xtn   -     @1655             
  AWID      integral  8     236               
  AWADDR    integral  32    'h109450d3        
  AWLEN     integral  8     'd5               
  AWSIZE    integral  3     'd2               
  AWBURST   integral  2     'd1               
  AWVALID   integral  1     'b1               
  AWREADY   integral  1     'b1               
  WID       integral  8     236               
  WDATA[0]  integral  64    'h11f627aeceef5a74
  WDATA[1]  integral  64    'hce4cf1beefcba692
  WDATA[2]  integral  64    'h3d61d795ea3c0146
  WDATA[3]  integral  64    'h925fbbf2e1383871
  WDATA[4]  integral  64    'haac49d14155abf05
  WDATA[5]  integral  64    'h97f626075faf156b
  WSTRB[0]  integral  8     'b1000            
  WSTRB[1]  integral  8     'b11110000        
  WSTRB[2]  integral  8     'b1111            
  WSTRB[3]  integral  8     'b11110000        
  WSTRB[4]  integral  8     'b1111            
  WSTRB[5]  integral  8     'b11110000        
  WLAST     integral  1     'b1               
  WVALID    integral  1     'b1               
  WREADY    integral  1     'b1               
  BID       integral  8     'd0               
  BRESP     integral  1     'b0               
  BVALID    integral  1     'b0               
  BREADY    integral  1     'b0               
  ARID      integral  8     'd0               
  ARADDR    integral  32    'd0               
  ARLEN     integral  8     'd0               
  ARSIZE    integral  3     'd0               
  ARBURST   integral  2     'd0               
  ARVALID   integral  1     'b0               
  ARREADY   integral  1     'b0               
  RID       integral  8     'd0               
  RLAST     integral  1     'b0               
  RVALID    integral  1     'b0               
  RREADY    integral  1     'b0               
----------------------------------------------
UVM_INFO ../AXI_agt/AXI_monitor.sv(67) @ 235: uvm_test_top.env.AXI_agth[0].monh [AXI_monitor] W Channel method ended
UVM_INFO ../tb/scoreboard.sv(123) @ 235: uvm_test_top.env.sbh[0] [scoreboard] got axi data
UVM_INFO ../AXI_agt/AXI_monitor.sv(75) @ 235: uvm_test_top.env.AXI_agth[0].monh [AXI_monitor] B Channel method started
UVM_INFO ../AXI_agt/AXI_monitor.sv(65) @ 235: uvm_test_top.env.AXI_agth[0].monh [AXI_monitor] W Channel method started
UVM_INFO ../AXI_agt/AXI_driver.sv(68) @ 255: uvm_test_top.env.AXI_agth[0].drvh [AXI_driver] w_channel method ended
UVM_INFO ../AXI_agt/AXI_driver.sv(76) @ 255: uvm_test_top.env.AXI_agth[0].drvh [AXI_driver] b_channel method started
UVM_INFO ../AHB_agt/AHB_monitor.sv(39) @ 259: uvm_test_top.env.AHB_agth[0].monh [AHB_monitor] Monitor Data: 
 "---------------------------------------------
Name       Type      Size  Value             
---------------------------------------------
pend_xtn   AHB_xtn   -     @1865             
  HADDR    integral  32    'h109450df        
  HWRITE   integral  1     'b1               
  HTRANS   integral  2     'b10              
  HSIZE    integral  3     'd2               
  HBURST   integral  3     'd0               
  HWDATA   integral  64    'h925fbbf200000000
  HBUSREQ  integral  1     'b0               
  HLOCK    integral  1     'b0               
  HREADY   integral  1     'b1               
  HRDATA   integral  64    'h0               
  HRESP    integral  1     'b0               
  HGRANT   integral  1     'b0               
  HMASTER  integral  4     'h0               
---------------------------------------------
"
UVM_INFO ../tb/scoreboard.sv(135) @ 259: uvm_test_top.env.sbh[0] [scoreboard] got ahb data
UVM_INFO ../tb/scoreboard.sv(188) @ 259: uvm_test_top.env.sbh[0] [scoreboard] waiting for wdata queue
UVM_INFO ../tb/scoreboard.sv(193) @ 259: uvm_test_top.env.sbh[0] [scoreboard] DATA MATCH :)
UVM_INFO ../tb/scoreboard.sv(194) @ 259: uvm_test_top.env.sbh[0] [scoreboard] axi_wdata = 925fbbf200000000, ahb_wdata = 925fbbf200000000
UVM_INFO ../AHB_agt/AHB_monitor.sv(39) @ 273: uvm_test_top.env.AHB_agth[0].monh [AHB_monitor] Monitor Data: 
 "-------------------------------------
Name       Type      Size  Value     
-------------------------------------
pend_xtn   AHB_xtn   -     @1869     
  HADDR    integral  32    'h109450e3
  HWRITE   integral  1     'b1       
  HTRANS   integral  2     'b10      
  HSIZE    integral  3     'd2       
  HBURST   integral  3     'd0       
  HWDATA   integral  64    'h155abf05
  HBUSREQ  integral  1     'b0       
  HLOCK    integral  1     'b0       
  HREADY   integral  1     'b1       
  HRDATA   integral  64    'h0       
  HRESP    integral  1     'b0       
  HGRANT   integral  1     'b0       
  HMASTER  integral  4     'h0       
-------------------------------------
"
UVM_INFO ../tb/scoreboard.sv(135) @ 273: uvm_test_top.env.sbh[0] [scoreboard] got ahb data
UVM_INFO ../tb/scoreboard.sv(188) @ 273: uvm_test_top.env.sbh[0] [scoreboard] waiting for wdata queue
UVM_INFO ../tb/scoreboard.sv(193) @ 273: uvm_test_top.env.sbh[0] [scoreboard] DATA MATCH :)
UVM_INFO ../tb/scoreboard.sv(194) @ 273: uvm_test_top.env.sbh[0] [scoreboard] axi_wdata = 155abf05, ahb_wdata = 155abf05
UVM_INFO ../AXI_agt/AXI_driver.sv(140) @ 275: uvm_test_top.env.AXI_agth[0].drvh [AXI_driver] Inside b_channel driving logic - waiting for bvalid
UVM_INFO ../AHB_agt/AHB_monitor.sv(39) @ 357: uvm_test_top.env.AHB_agth[0].monh [AHB_monitor] Monitor Data: 
 "---------------------------------------------
Name       Type      Size  Value             
---------------------------------------------
pend_xtn   AHB_xtn   -     @1873             
  HADDR    integral  32    'h109450e7        
  HWRITE   integral  1     'b1               
  HTRANS   integral  2     'b10              
  HSIZE    integral  3     'd2               
  HBURST   integral  3     'd0               
  HWDATA   integral  64    'h97f6260700000000
  HBUSREQ  integral  1     'b0               
  HLOCK    integral  1     'b0               
  HREADY   integral  1     'b1               
  HRDATA   integral  64    'h0               
  HRESP    integral  1     'b0               
  HGRANT   integral  1     'b0               
  HMASTER  integral  4     'h0               
---------------------------------------------
"
UVM_INFO ../tb/scoreboard.sv(135) @ 357: uvm_test_top.env.sbh[0] [scoreboard] got ahb data
UVM_INFO ../tb/scoreboard.sv(188) @ 357: uvm_test_top.env.sbh[0] [scoreboard] waiting for wdata queue
UVM_INFO ../tb/scoreboard.sv(193) @ 357: uvm_test_top.env.sbh[0] [scoreboard] DATA MATCH :)
UVM_INFO ../tb/scoreboard.sv(194) @ 357: uvm_test_top.env.sbh[0] [scoreboard] axi_wdata = 97f6260700000000, ahb_wdata = 97f6260700000000
UVM_INFO /home/cad/eda/SYNOPSYS/vcs_all_vX-2025.06/vcs/X-2025.06/etc/uvm/base/uvm_objection.svh(1274) @ 503: reporter [TEST_DONE] 'run' phase is ready to proceed to the 'extract' phase

--- UVM Report Summary ---

** Report counts by severity
UVM_INFO :   88
UVM_WARNING :    0
UVM_ERROR :    0
UVM_FATAL :    0
** Report counts by id
[AHB_driver]    11
[AHB_monitor]     6
[AHB_rst_driver]     2
[AHB_rst_monitor]     3
[AXI_driver]     7
[AXI_monitor]    13
[AXI_rst_driver]     2
[AXI_rst_monitor]     3
[RNTST]     1
[TEST_DONE]     1
[UVMTOP]     1
[scoreboard]    38
$finish called from file "/home/cad/eda/SYNOPSYS/vcs_all_vX-2025.06/vcs/X-2025.06/etc/uvm/base/uvm_root.svh", line 437.
$finish at simulation time                  503
           V C S   S i m u l a t i o n   R e p o r t 
Time: 503 ns
CPU Time:      0.410 seconds;       Data structure size:   0.8Mb
Mon Aug  3 19:42:09 2026
