Command: vcs -l out.log -timescale=1ns/1ns -sverilog -ntb_opts uvm -debug_access+all \
+incdir+../AXI_agt/ +incdir+../AXI_rst_agt/ +incdir+../AHB_agt/ +incdir+../AHB_rst_agt/ \
+incdir+../tb/ +incdir+../test/ +incdir+../AXI2AHB_RTL/ ../tb/top_pkg.sv ../AXI2AHB_RTL/ahb_interface.sv \
../AXI2AHB_RTL/ahb_rst_interface.sv ../AXI2AHB_RTL/axi_interface.sv ../AXI2AHB_RTL/axi_rst_interface.sv \
../tb/top.sv ../AXI2AHB_RTL/addr_fifo.v ../AXI2AHB_RTL/ahb_controller.v ../AXI2AHB_RTL/axi2ahb_bridge_top.v \
../AXI2AHB_RTL/axi2fifo.v ../AXI2AHB_RTL/axi_controller.v ../AXI2AHB_RTL/data_fifo.v \
../AXI2AHB_RTL/fifo2axi.v ../AXI2AHB_RTL/fifo_wrapper.v ../AXI2AHB_RTL/id_resp_fifo.v \
../AXI2AHB_RTL/id_send_fifo.v ../AXI2AHB_RTL/rdata_fifo.v ../AXI2AHB_RTL/resp_fifo.v \
../AXI2AHB_RTL/size_fifo.v ../AXI2AHB_RTL/write_fifo.v
                         Chronologic VCS (TM)
         Version X-2025.06_Full64 -- Tue Aug  4 03:33:32 2026

                    Copyright (c) 1991 - 2025 Synopsys, Inc.
   This software and the associated documentation are proprietary to Synopsys,
 Inc. This software may only be used in accordance with the terms and conditions
 of a written license agreement with Synopsys, Inc. All other use, reproduction,
   or distribution of this software is strictly prohibited.  Licensed Products
     communicate with Synopsys servers for the purpose of providing software
    updates, detecting software piracy and verifying that customers are using
    Licensed Products in conformity with the applicable License Key for such
  Licensed Products. Synopsys will use information gathered in connection with
    this process to deliver software updates and pursue software pirates and
                                   infringers.

 Inclusivity & Diversity - Visit SolvNetPlus to read the "Synopsys Statement on
            Inclusivity and Diversity" (Refer to article 000036315 at
                        https://solvnetplus.synopsys.com)

The design hasn't changed and need not be recompiled. 
If you really want to, delete file simv.daidir/.vcs.timestamp and
run VCS again.

Command: /home2/B126/AKSSolomon/VLSI_RN_OFFLINE/AXI2AHB_Bridge/sim/./simv -a out.log +UVM_TESTNAME=AXI_write_fixed_test +ntb_random_seed_automatic -cm_dir ./axifixed_data
Chronologic VCS simulator copyright 1991-2025
Contains Synopsys proprietary information.
Compiler version X-2025.06_Full64; Runtime version X-2025.06_Full64;  Aug  4 03:33 2026
NOTE: automatic random seed used: 3100188779
----------------------------------------------------------------
UVM-1.1d.Synopsys
(C) 2007-2013 Mentor Graphics Corporation
(C) 2007-2013 Cadence Design Systems, Inc.
(C) 2006-2013 Synopsys, Inc.
(C) 2011-2013 Cypress Semiconductor Corp.
----------------------------------------------------------------

  ***********       IMPORTANT RELEASE NOTES         ************

  You are using a version of the UVM library that has been compiled
  with `UVM_NO_DEPRECATED undefined.
  See http://www.eda.org/svdb/view.php?id=3313 for more details.

  You are using a version of the UVM library that has been compiled
  with `UVM_OBJECT_MUST_HAVE_CONSTRUCTOR undefined.
  See http://www.eda.org/svdb/view.php?id=3770 for more details.

      (Specify +UVM_NO_RELNOTES to turn off this notice)

UVM_INFO @ 0: reporter [RNTST] Running test AXI_write_fixed_test...
*Verdi* Loading libsscore_vcs202506.so
FSDB Dumper for VCS, Release Verdi_X-2025.06, Linux x86_64/64bit, 05/31/2025
(C) 1996 - 2025 by Synopsys, Inc.
*Verdi* FSDB WARNING: The FSDB file already exists. Overwriting the FSDB file may crash the programs that are using this file.
*Verdi* : Create FSDB file 'wave.fsdb'
*Verdi* : Begin traversing the scope (top), layer (0).
*Verdi* : End of traversing.
UVM_INFO @ 0: reporter [UVMTOP] UVM testbench topology:
-------------------------------------------------------------------
Name                        Type                        Size  Value
-------------------------------------------------------------------
uvm_test_top                AXI_write_fixed_test        -     @483 
  env                       env                         -     @496 
    AHB_agth[0]             AHB_agent                   -     @870 
      drvh                  AHB_driver                  -     @918 
        rsp_port            uvm_analysis_port           -     @935 
        seq_item_port       uvm_seq_item_pull_port      -     @926 
      monh                  AHB_monitor                 -     @898 
        AHB_mon_port        uvm_analysis_port           -     @906 
      seqrh                 AHB_sequencer               -     @944 
        rsp_export          uvm_analysis_export         -     @952 
        seq_item_export     uvm_seq_item_pull_imp       -     @1058
        arbitration_queue   array                       0     -    
        lock_queue          array                       0     -    
        num_last_reqs       integral                    32    'd1  
        num_last_rsps       integral                    32    'd1  
    AHB_rst_agth[0]         AHB_rst_agent               -     @885 
      drvh                  AHB_rst_driver              -     @1098
        rsp_port            uvm_analysis_port           -     @1115
        seq_item_port       uvm_seq_item_pull_port      -     @1106
      monh                  AHB_rst_monitor             -     @1079
        AHB_rst_mon_port    uvm_analysis_port           -     @1087
      seqrh                 AHB_rst_sequencer           -     @1124
        rsp_export          uvm_analysis_export         -     @1132
        seq_item_export     uvm_seq_item_pull_imp       -     @1238
        arbitration_queue   array                       0     -    
        lock_queue          array                       0     -    
        num_last_reqs       integral                    32    'd1  
        num_last_rsps       integral                    32    'd1  
    AXI_agth[0]             AXI_agent                   -     @841 
      drvh                  AXI_driver                  -     @1299
        rsp_port            uvm_analysis_port           -     @1316
        seq_item_port       uvm_seq_item_pull_port      -     @1307
      monh                  AXI_monitor                 -     @1263
        AXI_mon_port        uvm_analysis_port           -     @1271
        AXI_rdata_mon_port  uvm_analysis_port           -     @1289
        AXI_wdata_mon_port  uvm_analysis_port           -     @1280
      seqrh                 AXI_sequencer               -     @1325
        rsp_export          uvm_analysis_export         -     @1333
        seq_item_export     uvm_seq_item_pull_imp       -     @1439
        arbitration_queue   array                       0     -    
        lock_queue          array                       0     -    
        num_last_reqs       integral                    32    'd1  
        num_last_rsps       integral                    32    'd1  
    AXI_rst_agth[0]         AXI_rst_agent               -     @856 
      drvh                  AXI_rst_driver              -     @1478
        rsp_port            uvm_analysis_port           -     @1495
        seq_item_port       uvm_seq_item_pull_port      -     @1486
      monh                  AXI_rst_monitor             -     @1460
        AXI_rst_mon_port    uvm_analysis_port           -     @1468
      seqrh                 AXI_rst_sequencer           -     @1504
        rsp_export          uvm_analysis_export         -     @1512
        seq_item_export     uvm_seq_item_pull_imp       -     @1618
        arbitration_queue   array                       0     -    
        lock_queue          array                       0     -    
        num_last_reqs       integral                    32    'd1  
        num_last_rsps       integral                    32    'd1  
    sbh[0]                  scoreboard                  -     @509 
      AHB_fifoh             uvm_tlm_analysis_fifo #(T)  -     @623 
        analysis_export     uvm_analysis_imp            -     @667 
        get_ap              uvm_analysis_port           -     @658 
        get_peek_export     uvm_get_peek_imp            -     @640 
        put_ap              uvm_analysis_port           -     @649 
        put_export          uvm_put_imp                 -     @631 
      AHB_rst_fifoh         uvm_tlm_analysis_fifo #(T)  -     @676 
        analysis_export     uvm_analysis_imp            -     @720 
        get_ap              uvm_analysis_port           -     @711 
        get_peek_export     uvm_get_peek_imp            -     @693 
        put_ap              uvm_analysis_port           -     @702 
        put_export          uvm_put_imp                 -     @684 
      AXI_fifoh             uvm_tlm_analysis_fifo #(T)  -     @517 
        analysis_export     uvm_analysis_imp            -     @561 
        get_ap              uvm_analysis_port           -     @552 
        get_peek_export     uvm_get_peek_imp            -     @534 
        put_ap              uvm_analysis_port           -     @543 
        put_export          uvm_put_imp                 -     @525 
      AXI_rdata_fifoh       uvm_tlm_analysis_fifo #(T)  -     @782 
        analysis_export     uvm_analysis_imp            -     @826 
        get_ap              uvm_analysis_port           -     @817 
        get_peek_export     uvm_get_peek_imp            -     @799 
        put_ap              uvm_analysis_port           -     @808 
        put_export          uvm_put_imp                 -     @790 
      AXI_rst_fifoh         uvm_tlm_analysis_fifo #(T)  -     @570 
        analysis_export     uvm_analysis_imp            -     @614 
        get_ap              uvm_analysis_port           -     @605 
        get_peek_export     uvm_get_peek_imp            -     @587 
        put_ap              uvm_analysis_port           -     @596 
        put_export          uvm_put_imp                 -     @578 
      AXI_wdata_fifoh       uvm_tlm_analysis_fifo #(T)  -     @729 
        analysis_export     uvm_analysis_imp            -     @773 
        get_ap              uvm_analysis_port           -     @764 
        get_peek_export     uvm_get_peek_imp            -     @746 
        put_ap              uvm_analysis_port           -     @755 
        put_export          uvm_put_imp                 -     @737 
-------------------------------------------------------------------

UVM_INFO ../AXI_agt/AXI_monitor.sv(75) @ 0: uvm_test_top.env.AXI_agth[0].monh [AXI_monitor] AW Channel method started
UVM_INFO ../AXI_agt/AXI_monitor.sv(103) @ 0: uvm_test_top.env.AXI_agth[0].monh [AXI_monitor] AR Channel method started
UVM_INFO ../tb/scoreboard.sv(123) @ 0: uvm_test_top.env.sbh[0] [scoreboard] got axi data
UVM_INFO ../AXI_rst_agt/AXI_rst_driver.sv(18) @ 0: uvm_test_top.env.AXI_rst_agth[0].drvh [AXI_rst_driver] Data in driver
-----------------------------------
Name       Type         Size  Value
-----------------------------------
req        AXI_rst_xtn  -     @1665
  ARESETn  integral     1     'b0  
  BVALID   integral     1     'bx  
  RVALID   integral     1     'bx  
-----------------------------------
UVM_INFO ../AHB_rst_agt/AHB_rst_driver.sv(22) @ 0: uvm_test_top.env.AHB_rst_agth[0].drvh [AHB_rst_driver] Data in AHB_rst_driver
-----------------------------------
Name       Type         Size  Value
-----------------------------------
req        AHB_rst_xtn  -     @1669
  HRESETn  integral     1     'b0  
  HREADY   integral     1     'b0  
  HTRANS   integral     2     'bxx 
-----------------------------------
UVM_INFO ../AXI_rst_agt/AXI_rst_monitor.sv(38) @ 15: uvm_test_top.env.AXI_rst_agth[0].monh [AXI_rst_monitor] Data in AXI RST MONITOR
-----------------------------------
Name       Type         Size  Value
-----------------------------------
xtn        AXI_rst_xtn  -     @1641
  ARESETn  integral     1     'b0  
  BVALID   integral     1     'b0  
  RVALID   integral     1     'b0  
-----------------------------------
UVM_INFO ../tb/scoreboard.sv(161) @ 15: uvm_test_top.env.sbh[0] [scoreboard] AXI rst GOOD
UVM_INFO ../AXI_rst_agt/AXI_rst_driver.sv(18) @ 15: uvm_test_top.env.AXI_rst_agth[0].drvh [AXI_rst_driver] Data in driver
-----------------------------------
Name       Type         Size  Value
-----------------------------------
req        AXI_rst_xtn  -     @1665
  ARESETn  integral     1     'b1  
  BVALID   integral     1     'bx  
  RVALID   integral     1     'bx  
-----------------------------------
UVM_INFO ../AHB_rst_agt/AHB_rst_monitor.sv(37) @ 21: uvm_test_top.env.AHB_rst_agth[0].monh [AHB_rst_monitor] Data in AHB RST MONITOR
-----------------------------------
Name       Type         Size  Value
-----------------------------------
xtn        AHB_rst_xtn  -     @1251
  HRESETn  integral     1     'b0  
  HREADY   integral     1     'b0  
  HTRANS   integral     2     'b0  
-----------------------------------
UVM_INFO ../tb/scoreboard.sv(171) @ 21: uvm_test_top.env.sbh[0] [scoreboard] AHB rst GOOD
UVM_INFO ../AHB_rst_agt/AHB_rst_driver.sv(22) @ 21: uvm_test_top.env.AHB_rst_agth[0].drvh [AHB_rst_driver] Data in AHB_rst_driver
-----------------------------------
Name       Type         Size  Value
-----------------------------------
req        AHB_rst_xtn  -     @1669
  HRESETn  integral     1     'b1  
  HREADY   integral     1     'b1  
  HTRANS   integral     2     'bxx 
-----------------------------------
UVM_INFO ../AXI_rst_agt/AXI_rst_monitor.sv(38) @ 25: uvm_test_top.env.AXI_rst_agth[0].monh [AXI_rst_monitor] Data in AXI RST MONITOR
-----------------------------------
Name       Type         Size  Value
-----------------------------------
xtn        AXI_rst_xtn  -     @1769
  ARESETn  integral     1     'b0  
  BVALID   integral     1     'b0  
  RVALID   integral     1     'b0  
-----------------------------------
UVM_INFO ../tb/scoreboard.sv(161) @ 25: uvm_test_top.env.sbh[0] [scoreboard] AXI rst GOOD
UVM_INFO ../AXI_rst_agt/AXI_rst_monitor.sv(38) @ 35: uvm_test_top.env.AXI_rst_agth[0].monh [AXI_rst_monitor] Data in AXI RST MONITOR
-----------------------------------
Name       Type         Size  Value
-----------------------------------
xtn        AXI_rst_xtn  -     @1775
  ARESETn  integral     1     'b1  
  BVALID   integral     1     'b0  
  RVALID   integral     1     'b0  
-----------------------------------
UVM_INFO ../AHB_rst_agt/AHB_rst_monitor.sv(37) @ 35: uvm_test_top.env.AHB_rst_agth[0].monh [AHB_rst_monitor] Data in AHB RST MONITOR
-----------------------------------
Name       Type         Size  Value
-----------------------------------
xtn        AHB_rst_xtn  -     @1251
  HRESETn  integral     1     'b0  
  HREADY   integral     1     'b0  
  HTRANS   integral     2     'b0  
-----------------------------------
UVM_INFO ../tb/scoreboard.sv(171) @ 35: uvm_test_top.env.sbh[0] [scoreboard] AHB rst GOOD
UVM_INFO ../AHB_rst_agt/AHB_rst_monitor.sv(37) @ 49: uvm_test_top.env.AHB_rst_agth[0].monh [AHB_rst_monitor] Data in AHB RST MONITOR
-----------------------------------
Name       Type         Size  Value
-----------------------------------
xtn        AHB_rst_xtn  -     @1251
  HRESETn  integral     1     'b1  
  HREADY   integral     1     'b0  
  HTRANS   integral     2     'b0  
-----------------------------------
UVM_INFO ../AHB_agt/AHB_driver.sv(19) @ 49: uvm_test_top.env.AHB_agth[0].drvh [AHB_driver] Data in AHB Driver
---------------------------------------------
Name       Type      Size  Value             
---------------------------------------------
req        AHB_xtn   -     @1795             
  HADDR    integral  32    'h0               
  HWRITE   integral  1     'b0               
  HTRANS   integral  2     'b0               
  HSIZE    integral  3     'd0               
  HBURST   integral  3     'd0               
  HWDATA   integral  64    'h0               
  HBUSREQ  integral  1     'b0               
  HLOCK    integral  1     'b0               
  HREADY   integral  1     'b0               
  HRDATA   integral  64    'hfe0daccca8d84872
  HRESP    integral  1     'b1               
  HGRANT   integral  1     'b0               
  HMASTER  integral  4     'h2               
---------------------------------------------
UVM_INFO ../AXI_agt/AXI_driver.sv(101) @ 49: uvm_test_top.env.AXI_agth[0].drvh [AXI_driver] aw_channel method started
UVM_INFO ../AHB_agt/AHB_driver.sv(19) @ 63: uvm_test_top.env.AHB_agth[0].drvh [AHB_driver] Data in AHB Driver
---------------------------------------------
Name       Type      Size  Value             
---------------------------------------------
req        AHB_xtn   -     @1795             
  HADDR    integral  32    'h0               
  HWRITE   integral  1     'b0               
  HTRANS   integral  2     'b0               
  HSIZE    integral  3     'd0               
  HBURST   integral  3     'd0               
  HWDATA   integral  64    'h0               
  HBUSREQ  integral  1     'b0               
  HLOCK    integral  1     'b0               
  HREADY   integral  1     'b1               
  HRDATA   integral  64    'hd1186eb7624cde30
  HRESP    integral  1     'b1               
  HGRANT   integral  1     'b1               
  HMASTER  integral  4     'h2               
---------------------------------------------
UVM_INFO ../AXI_agt/AXI_monitor.sv(139) @ 65: uvm_test_top.env.AXI_agth[0].monh [AXI_monitor] AW Channel - WRITE DATA in AXI MONITOR
--------------------------------
Name       Type      Size  Value
--------------------------------
aw_xtn     AXI_xtn   -     @1655
  AWID     integral  8     221  
  AWADDR   integral  32    'haa 
  AWLEN    integral  8     'd15 
  AWSIZE   integral  3     'd0  
  AWBURST  integral  2     'd0  
  AWVALID  integral  1     'b1  
  AWREADY  integral  1     'b1  
  WID      integral  8     'd0  
  WLAST    integral  1     'b0  
  WVALID   integral  1     'b0  
  WREADY   integral  1     'b0  
  BID      integral  8     'd0  
  BRESP    integral  1     'b0  
  BVALID   integral  1     'b0  
  BREADY   integral  1     'b0  
  ARID     integral  8     'd0  
  ARADDR   integral  32    'd0  
  ARLEN    integral  8     'd0  
  ARSIZE   integral  3     'd0  
  ARBURST  integral  2     'd0  
  ARVALID  integral  1     'b0  
  ARREADY  integral  1     'b0  
  RID      integral  8     'd0  
  RLAST    integral  1     'b0  
  RVALID   integral  1     'b0  
  RREADY   integral  1     'b0  
--------------------------------
UVM_INFO ../tb/scoreboard.sv(123) @ 65: uvm_test_top.env.sbh[0] [scoreboard] got axi data
UVM_INFO ../AXI_agt/AXI_monitor.sv(77) @ 65: uvm_test_top.env.AXI_agth[0].monh [AXI_monitor] AW Channel method ended
UVM_INFO ../AXI_agt/AXI_monitor.sv(85) @ 65: uvm_test_top.env.AXI_agth[0].monh [AXI_monitor] W Channel method started
UVM_INFO ../AXI_agt/AXI_monitor.sv(75) @ 65: uvm_test_top.env.AXI_agth[0].monh [AXI_monitor] AW Channel method started
UVM_INFO ../AXI_agt/AXI_monitor.sv(139) @ 65: uvm_test_top.env.AXI_agth[0].monh [AXI_monitor] AW Channel - WRITE DATA in AXI MONITOR
--------------------------------
Name       Type      Size  Value
--------------------------------
aw_xtn     AXI_xtn   -     @1808
  AWID     integral  8     221  
  AWADDR   integral  32    'haa 
  AWLEN    integral  8     'd15 
  AWSIZE   integral  3     'd0  
  AWBURST  integral  2     'd0  
  AWVALID  integral  1     'b1  
  AWREADY  integral  1     'b1  
  WID      integral  8     'd0  
  WLAST    integral  1     'b0  
  WVALID   integral  1     'b0  
  WREADY   integral  1     'b0  
  BID      integral  8     'd0  
  BRESP    integral  1     'b0  
  BVALID   integral  1     'b0  
  BREADY   integral  1     'b0  
  ARID     integral  8     'd0  
  ARADDR   integral  32    'd0  
  ARLEN    integral  8     'd0  
  ARSIZE   integral  3     'd0  
  ARBURST  integral  2     'd0  
  ARVALID  integral  1     'b0  
  ARREADY  integral  1     'b0  
  RID      integral  8     'd0  
  RLAST    integral  1     'b0  
  RVALID   integral  1     'b0  
  RREADY   integral  1     'b0  
--------------------------------
UVM_INFO ../tb/scoreboard.sv(123) @ 65: uvm_test_top.env.sbh[0] [scoreboard] got axi data
UVM_INFO ../AXI_agt/AXI_driver.sv(103) @ 75: uvm_test_top.env.AXI_agth[0].drvh [AXI_driver] aw_channel method ended
UVM_INFO ../AXI_agt/AXI_driver.sv(37) @ 75: uvm_test_top.env.AXI_agth[0].drvh [AXI_driver] Data in AXI driver
-----------------------------------------------
Name         Type      Size  Value             
-----------------------------------------------
req          AXI_xtn   -     @1787             
  AWID       integral  8     221               
  AWADDR     integral  32    'haa              
  AWLEN      integral  8     'd15              
  AWSIZE     integral  3     'd0               
  AWBURST    integral  2     'd0               
  AWVALID    integral  1     'b1               
  AWREADY    integral  1     'b0               
  WID        integral  8     221               
  WDATA[0]   integral  64    'h864d336403f5fbbe
  WDATA[1]   integral  64    'h7708044b4f952dde
  WDATA[2]   integral  64    'h862a6e29b34896b0
  WDATA[3]   integral  64    'h6ca42470624c19a8
  WDATA[4]   integral  64    'he39c19eccf56a732
  WDATA[5]   integral  64    'h5c20d2d317fed205
  WDATA[6]   integral  64    'h7048fa4f1e08179f
  WDATA[7]   integral  64    'hdc6153b00c0f8946
  WDATA[8]   integral  64    'h364d3f8702b5b55a
  WDATA[9]   integral  64    'h2d391e7f8e069aa5
  WDATA[10]  integral  64    'h36265d392b9b5618
  WDATA[11]  integral  64    'hbd3a80ae138e1e8c
  WDATA[12]  integral  64    'hec26544ad109345 
  WDATA[13]  integral  64    'h4093d1732aebd57f
  WDATA[14]  integral  64    'h8fdeae3eaf45ed4b
  WDATA[15]  integral  64    'h9007bbce5f880e89
  WSTRB[0]   integral  8     'b100             
  WSTRB[1]   integral  8     'b1000            
  WSTRB[2]   integral  8     'b10000           
  WSTRB[3]   integral  8     'b100000          
  WSTRB[4]   integral  8     'b1000000         
  WSTRB[5]   integral  8     'b10000000        
  WSTRB[6]   integral  8     'b1               
  WSTRB[7]   integral  8     'b10              
  WSTRB[8]   integral  8     'b100             
  WSTRB[9]   integral  8     'b1000            
  WSTRB[10]  integral  8     'b10000           
  WSTRB[11]  integral  8     'b100000          
  WSTRB[12]  integral  8     'b1000000         
  WSTRB[13]  integral  8     'b10000000        
  WSTRB[14]  integral  8     'b1               
  WSTRB[15]  integral  8     'b10              
  WLAST      integral  1     'b0               
  WVALID     integral  1     'b1               
  WREADY     integral  1     'b0               
  BID        integral  8     'd0               
  BRESP      integral  1     'b0               
  BVALID     integral  1     'b0               
  BREADY     integral  1     'b1               
  ARID       integral  8     'd107             
  ARADDR     integral  32    'd2024450475      
  ARLEN      integral  8     220               
  ARSIZE     integral  3     'd1               
  ARBURST    integral  2     'd0               
  ARVALID    integral  1     'b0               
  ARREADY    integral  1     'b0               
  RID        integral  8     'd0               
  RLAST      integral  1     'b0               
  RVALID     integral  1     'b0               
  RREADY     integral  1     'b0               
-----------------------------------------------
UVM_INFO ../AXI_agt/AXI_monitor.sv(77) @ 75: uvm_test_top.env.AXI_agth[0].monh [AXI_monitor] AW Channel method ended
UVM_INFO ../AXI_agt/AXI_driver.sv(111) @ 75: uvm_test_top.env.AXI_agth[0].drvh [AXI_driver] w_channel method started
UVM_INFO ../AXI_agt/AXI_monitor.sv(75) @ 75: uvm_test_top.env.AXI_agth[0].monh [AXI_monitor] AW Channel method started
UVM_INFO ../AHB_agt/AHB_driver.sv(19) @ 77: uvm_test_top.env.AHB_agth[0].drvh [AHB_driver] Data in AHB Driver
---------------------------------------------
Name       Type      Size  Value             
---------------------------------------------
req        AHB_xtn   -     @1795             
  HADDR    integral  32    'h0               
  HWRITE   integral  1     'b0               
  HTRANS   integral  2     'b0               
  HSIZE    integral  3     'd0               
  HBURST   integral  3     'd0               
  HWDATA   integral  64    'h0               
  HBUSREQ  integral  1     'b0               
  HLOCK    integral  1     'b0               
  HREADY   integral  1     'b1               
  HRDATA   integral  64    'hfa97d38313fab729
  HRESP    integral  1     'b1               
  HGRANT   integral  1     'b1               
  HMASTER  integral  4     'h1               
---------------------------------------------
UVM_INFO ../tb/scoreboard.sv(146) @ 85: uvm_test_top.env.sbh[0] [scoreboard] got data for wdata queue
UVM_INFO ../AHB_agt/AHB_driver.sv(19) @ 91: uvm_test_top.env.AHB_agth[0].drvh [AHB_driver] Data in AHB Driver
---------------------------------------------
Name       Type      Size  Value             
---------------------------------------------
req        AHB_xtn   -     @1795             
  HADDR    integral  32    'h0               
  HWRITE   integral  1     'b0               
  HTRANS   integral  2     'b0               
  HSIZE    integral  3     'd0               
  HBURST   integral  3     'd0               
  HWDATA   integral  64    'h0               
  HBUSREQ  integral  1     'b0               
  HLOCK    integral  1     'b0               
  HREADY   integral  1     'b0               
  HRDATA   integral  64    'hceb3faff0399ba43
  HRESP    integral  1     'b1               
  HGRANT   integral  1     'b1               
  HMASTER  integral  4     'hc               
---------------------------------------------
UVM_INFO ../AHB_agt/AHB_driver.sv(19) @ 105: uvm_test_top.env.AHB_agth[0].drvh [AHB_driver] Data in AHB Driver
---------------------------------------------
Name       Type      Size  Value             
---------------------------------------------
req        AHB_xtn   -     @1795             
  HADDR    integral  32    'h0               
  HWRITE   integral  1     'b0               
  HTRANS   integral  2     'b0               
  HSIZE    integral  3     'd0               
  HBURST   integral  3     'd0               
  HWDATA   integral  64    'h0               
  HBUSREQ  integral  1     'b0               
  HLOCK    integral  1     'b0               
  HREADY   integral  1     'b0               
  HRDATA   integral  64    'hc80b547a9f23a900
  HRESP    integral  1     'b0               
  HGRANT   integral  1     'b1               
  HMASTER  integral  4     'h5               
---------------------------------------------
UVM_INFO ../tb/scoreboard.sv(146) @ 115: uvm_test_top.env.sbh[0] [scoreboard] got data for wdata queue
UVM_INFO ../AHB_agt/AHB_driver.sv(19) @ 119: uvm_test_top.env.AHB_agth[0].drvh [AHB_driver] Data in AHB Driver
---------------------------------------------
Name       Type      Size  Value             
---------------------------------------------
req        AHB_xtn   -     @1795             
  HADDR    integral  32    'h0               
  HWRITE   integral  1     'b0               
  HTRANS   integral  2     'b0               
  HSIZE    integral  3     'd0               
  HBURST   integral  3     'd0               
  HWDATA   integral  64    'h0               
  HBUSREQ  integral  1     'b0               
  HLOCK    integral  1     'b0               
  HREADY   integral  1     'b1               
  HRDATA   integral  64    'h31932ba998c6f7c2
  HRESP    integral  1     'b1               
  HGRANT   integral  1     'b0               
  HMASTER  integral  4     'h9               
---------------------------------------------
UVM_INFO ../AHB_agt/AHB_driver.sv(19) @ 133: uvm_test_top.env.AHB_agth[0].drvh [AHB_driver] Data in AHB Driver
---------------------------------------------
Name       Type      Size  Value             
---------------------------------------------
req        AHB_xtn   -     @1795             
  HADDR    integral  32    'h0               
  HWRITE   integral  1     'b0               
  HTRANS   integral  2     'b0               
  HSIZE    integral  3     'd0               
  HBURST   integral  3     'd0               
  HWDATA   integral  64    'h0               
  HBUSREQ  integral  1     'b0               
  HLOCK    integral  1     'b0               
  HREADY   integral  1     'b0               
  HRDATA   integral  64    'h9c92c5b12d887d65
  HRESP    integral  1     'b0               
  HGRANT   integral  1     'b0               
  HMASTER  integral  4     'he               
---------------------------------------------
UVM_INFO ../tb/scoreboard.sv(146) @ 145: uvm_test_top.env.sbh[0] [scoreboard] got data for wdata queue
UVM_INFO ../AHB_agt/AHB_driver.sv(19) @ 147: uvm_test_top.env.AHB_agth[0].drvh [AHB_driver] Data in AHB Driver
---------------------------------------------
Name       Type      Size  Value             
---------------------------------------------
req        AHB_xtn   -     @1795             
  HADDR    integral  32    'h0               
  HWRITE   integral  1     'b0               
  HTRANS   integral  2     'b0               
  HSIZE    integral  3     'd0               
  HBURST   integral  3     'd0               
  HWDATA   integral  64    'h0               
  HBUSREQ  integral  1     'b0               
  HLOCK    integral  1     'b0               
  HREADY   integral  1     'b1               
  HRDATA   integral  64    'h9cd57a5cfb5b6e7c
  HRESP    integral  1     'b1               
  HGRANT   integral  1     'b1               
  HMASTER  integral  4     'h8               
---------------------------------------------
UVM_INFO ../AHB_agt/AHB_driver.sv(19) @ 161: uvm_test_top.env.AHB_agth[0].drvh [AHB_driver] Data in AHB Driver
---------------------------------------------
Name       Type      Size  Value             
---------------------------------------------
req        AHB_xtn   -     @1795             
  HADDR    integral  32    'h0               
  HWRITE   integral  1     'b0               
  HTRANS   integral  2     'b0               
  HSIZE    integral  3     'd0               
  HBURST   integral  3     'd0               
  HWDATA   integral  64    'h0               
  HBUSREQ  integral  1     'b0               
  HLOCK    integral  1     'b0               
  HREADY   integral  1     'b0               
  HRDATA   integral  64    'h5dd7841a167c0cc3
  HRESP    integral  1     'b0               
  HGRANT   integral  1     'b0               
  HMASTER  integral  4     'h8               
---------------------------------------------
UVM_INFO ../tb/scoreboard.sv(146) @ 175: uvm_test_top.env.sbh[0] [scoreboard] got data for wdata queue
UVM_INFO ../AHB_agt/AHB_monitor.sv(39) @ 175: uvm_test_top.env.AHB_agth[0].monh [AHB_monitor] Monitor Data: 
 "-----------------------------------
Name       Type      Size  Value   
-----------------------------------
pend_xtn   AHB_xtn   -     @1829   
  HADDR    integral  32    'haa    
  HWRITE   integral  1     'b1     
  HTRANS   integral  2     'b10    
  HSIZE    integral  3     'd0     
  HBURST   integral  3     'd0     
  HWDATA   integral  64    'hf50000
  HBUSREQ  integral  1     'b0     
  HLOCK    integral  1     'b0     
  HREADY   integral  1     'b1     
  HRDATA   integral  64    'h0     
  HRESP    integral  1     'b0     
  HGRANT   integral  1     'b0     
  HMASTER  integral  4     'h0     
-----------------------------------
"
UVM_INFO ../tb/scoreboard.sv(135) @ 175: uvm_test_top.env.sbh[0] [scoreboard] got ahb data
UVM_INFO ../tb/scoreboard.sv(188) @ 175: uvm_test_top.env.sbh[0] [scoreboard] waiting for wdata queue
UVM_INFO ../tb/scoreboard.sv(193) @ 175: uvm_test_top.env.sbh[0] [scoreboard] DATA MATCH :)
UVM_INFO ../tb/scoreboard.sv(194) @ 175: uvm_test_top.env.sbh[0] [scoreboard] axi_wdata = f50000, ahb_wdata = f50000
UVM_INFO ../AHB_agt/AHB_driver.sv(19) @ 175: uvm_test_top.env.AHB_agth[0].drvh [AHB_driver] Data in AHB Driver
---------------------------------------------
Name       Type      Size  Value             
---------------------------------------------
req        AHB_xtn   -     @1795             
  HADDR    integral  32    'h0               
  HWRITE   integral  1     'b0               
  HTRANS   integral  2     'b0               
  HSIZE    integral  3     'd0               
  HBURST   integral  3     'd0               
  HWDATA   integral  64    'h0               
  HBUSREQ  integral  1     'b0               
  HLOCK    integral  1     'b0               
  HREADY   integral  1     'b1               
  HRDATA   integral  64    'hc048b438265827d6
  HRESP    integral  1     'b0               
  HGRANT   integral  1     'b0               
  HMASTER  integral  4     'h0               
---------------------------------------------
UVM_INFO ../AHB_agt/AHB_monitor.sv(39) @ 189: uvm_test_top.env.AHB_agth[0].monh [AHB_monitor] Monitor Data: 
 "-------------------------------------
Name       Type      Size  Value     
-------------------------------------
pend_xtn   AHB_xtn   -     @1837     
  HADDR    integral  32    'haa      
  HWRITE   integral  1     'b1       
  HTRANS   integral  2     'b10      
  HSIZE    integral  3     'd0       
  HBURST   integral  3     'd0       
  HWDATA   integral  64    'h4f000000
  HBUSREQ  integral  1     'b0       
  HLOCK    integral  1     'b0       
  HREADY   integral  1     'b1       
  HRDATA   integral  64    'h0       
  HRESP    integral  1     'b0       
  HGRANT   integral  1     'b0       
  HMASTER  integral  4     'h0       
-------------------------------------
"
UVM_INFO ../tb/scoreboard.sv(135) @ 189: uvm_test_top.env.sbh[0] [scoreboard] got ahb data
UVM_INFO ../tb/scoreboard.sv(188) @ 189: uvm_test_top.env.sbh[0] [scoreboard] waiting for wdata queue
UVM_INFO ../tb/scoreboard.sv(193) @ 189: uvm_test_top.env.sbh[0] [scoreboard] DATA MATCH :)
UVM_INFO ../tb/scoreboard.sv(194) @ 189: uvm_test_top.env.sbh[0] [scoreboard] axi_wdata = 4f000000, ahb_wdata = 4f000000
UVM_INFO ../AHB_agt/AHB_driver.sv(19) @ 189: uvm_test_top.env.AHB_agth[0].drvh [AHB_driver] Data in AHB Driver
---------------------------------------------
Name       Type      Size  Value             
---------------------------------------------
req        AHB_xtn   -     @1795             
  HADDR    integral  32    'h0               
  HWRITE   integral  1     'b0               
  HTRANS   integral  2     'b0               
  HSIZE    integral  3     'd0               
  HBURST   integral  3     'd0               
  HWDATA   integral  64    'h0               
  HBUSREQ  integral  1     'b0               
  HLOCK    integral  1     'b0               
  HREADY   integral  1     'b0               
  HRDATA   integral  64    'h117e0be0096c9d88
  HRESP    integral  1     'b1               
  HGRANT   integral  1     'b0               
  HMASTER  integral  4     'h0               
---------------------------------------------
UVM_INFO ../AHB_agt/AHB_monitor.sv(39) @ 203: uvm_test_top.env.AHB_agth[0].monh [AHB_monitor] Monitor Data: 
 "---------------------------------------
Name       Type      Size  Value       
---------------------------------------
pend_xtn   AHB_xtn   -     @1841       
  HADDR    integral  32    'hab        
  HWRITE   integral  1     'b1         
  HTRANS   integral  2     'b10        
  HSIZE    integral  3     'd0         
  HBURST   integral  3     'd0         
  HWDATA   integral  64    'h2900000000
  HBUSREQ  integral  1     'b0         
  HLOCK    integral  1     'b0         
  HREADY   integral  1     'b1         
  HRDATA   integral  64    'h0         
  HRESP    integral  1     'b0         
  HGRANT   integral  1     'b0         
  HMASTER  integral  4     'h0         
---------------------------------------
"
UVM_INFO ../tb/scoreboard.sv(135) @ 203: uvm_test_top.env.sbh[0] [scoreboard] got ahb data
UVM_INFO ../tb/scoreboard.sv(188) @ 203: uvm_test_top.env.sbh[0] [scoreboard] waiting for wdata queue
UVM_INFO ../tb/scoreboard.sv(193) @ 203: uvm_test_top.env.sbh[0] [scoreboard] DATA MATCH :)
UVM_INFO ../tb/scoreboard.sv(194) @ 203: uvm_test_top.env.sbh[0] [scoreboard] axi_wdata = 2900000000, ahb_wdata = 2900000000
UVM_INFO ../AHB_agt/AHB_driver.sv(19) @ 203: uvm_test_top.env.AHB_agth[0].drvh [AHB_driver] Data in AHB Driver
---------------------------------------------
Name       Type      Size  Value             
---------------------------------------------
req        AHB_xtn   -     @1795             
  HADDR    integral  32    'h0               
  HWRITE   integral  1     'b0               
  HTRANS   integral  2     'b0               
  HSIZE    integral  3     'd0               
  HBURST   integral  3     'd0               
  HWDATA   integral  64    'h0               
  HBUSREQ  integral  1     'b0               
  HLOCK    integral  1     'b0               
  HREADY   integral  1     'b0               
  HRDATA   integral  64    'h50badafccf442f52
  HRESP    integral  1     'b0               
  HGRANT   integral  1     'b1               
  HMASTER  integral  4     'hd               
---------------------------------------------
UVM_INFO ../tb/scoreboard.sv(146) @ 205: uvm_test_top.env.sbh[0] [scoreboard] got data for wdata queue
UVM_INFO ../AHB_agt/AHB_driver.sv(19) @ 217: uvm_test_top.env.AHB_agth[0].drvh [AHB_driver] Data in AHB Driver
---------------------------------------------
Name       Type      Size  Value             
---------------------------------------------
req        AHB_xtn   -     @1795             
  HADDR    integral  32    'h0               
  HWRITE   integral  1     'b0               
  HTRANS   integral  2     'b0               
  HSIZE    integral  3     'd0               
  HBURST   integral  3     'd0               
  HWDATA   integral  64    'h0               
  HBUSREQ  integral  1     'b0               
  HLOCK    integral  1     'b0               
  HREADY   integral  1     'b1               
  HRDATA   integral  64    'h13645eb2f083574c
  HRESP    integral  1     'b1               
  HGRANT   integral  1     'b0               
  HMASTER  integral  4     'h1               
---------------------------------------------
UVM_INFO ../AHB_agt/AHB_driver.sv(19) @ 231: uvm_test_top.env.AHB_agth[0].drvh [AHB_driver] Data in AHB Driver
--------------------------------------------
Name       Type      Size  Value            
--------------------------------------------
req        AHB_xtn   -     @1795            
  HADDR    integral  32    'h0              
  HWRITE   integral  1     'b0              
  HTRANS   integral  2     'b0              
  HSIZE    integral  3     'd0              
  HBURST   integral  3     'd0              
  HWDATA   integral  64    'h0              
  HBUSREQ  integral  1     'b0              
  HLOCK    integral  1     'b0              
  HREADY   integral  1     'b0              
  HRDATA   integral  64    'h281916a28c4c7fe
  HRESP    integral  1     'b0              
  HGRANT   integral  1     'b1              
  HMASTER  integral  4     'ha              
--------------------------------------------
UVM_INFO ../tb/scoreboard.sv(146) @ 235: uvm_test_top.env.sbh[0] [scoreboard] got data for wdata queue
UVM_INFO ../AHB_agt/AHB_driver.sv(19) @ 245: uvm_test_top.env.AHB_agth[0].drvh [AHB_driver] Data in AHB Driver
--------------------------------------------
Name       Type      Size  Value            
--------------------------------------------
req        AHB_xtn   -     @1795            
  HADDR    integral  32    'h0              
  HWRITE   integral  1     'b0              
  HTRANS   integral  2     'b0              
  HSIZE    integral  3     'd0              
  HBURST   integral  3     'd0              
  HWDATA   integral  64    'h0              
  HBUSREQ  integral  1     'b0              
  HLOCK    integral  1     'b0              
  HREADY   integral  1     'b0              
  HRDATA   integral  64    'h2606b865332cfa7
  HRESP    integral  1     'b1              
  HGRANT   integral  1     'b1              
  HMASTER  integral  4     'ha              
--------------------------------------------
UVM_INFO ../AHB_agt/AHB_monitor.sv(39) @ 259: uvm_test_top.env.AHB_agth[0].monh [AHB_monitor] Monitor Data: 
 "-----------------------------------------
Name       Type      Size  Value         
-----------------------------------------
pend_xtn   AHB_xtn   -     @1857         
  HADDR    integral  32    'had          
  HWRITE   integral  1     'b1           
  HTRANS   integral  2     'b10          
  HSIZE    integral  3     'd0           
  HBURST   integral  3     'd0           
  HWDATA   integral  64    'h240000000000
  HBUSREQ  integral  1     'b0           
  HLOCK    integral  1     'b0           
  HREADY   integral  1     'b1           
  HRDATA   integral  64    'h0           
  HRESP    integral  1     'b0           
  HGRANT   integral  1     'b0           
  HMASTER  integral  4     'h0           
-----------------------------------------
"
UVM_INFO ../tb/scoreboard.sv(135) @ 259: uvm_test_top.env.sbh[0] [scoreboard] got ahb data
UVM_INFO ../tb/scoreboard.sv(188) @ 259: uvm_test_top.env.sbh[0] [scoreboard] waiting for wdata queue
UVM_INFO ../tb/scoreboard.sv(193) @ 259: uvm_test_top.env.sbh[0] [scoreboard] DATA MATCH :)
UVM_INFO ../tb/scoreboard.sv(194) @ 259: uvm_test_top.env.sbh[0] [scoreboard] axi_wdata = 240000000000, ahb_wdata = 240000000000
UVM_INFO ../AHB_agt/AHB_driver.sv(19) @ 259: uvm_test_top.env.AHB_agth[0].drvh [AHB_driver] Data in AHB Driver
---------------------------------------------
Name       Type      Size  Value             
---------------------------------------------
req        AHB_xtn   -     @1795             
  HADDR    integral  32    'h0               
  HWRITE   integral  1     'b0               
  HTRANS   integral  2     'b0               
  HSIZE    integral  3     'd0               
  HBURST   integral  3     'd0               
  HWDATA   integral  64    'h0               
  HBUSREQ  integral  1     'b0               
  HLOCK    integral  1     'b0               
  HREADY   integral  1     'b0               
  HRDATA   integral  64    'h5c2ab97d1c57562c
  HRESP    integral  1     'b0               
  HGRANT   integral  1     'b1               
  HMASTER  integral  4     'h1               
---------------------------------------------
UVM_INFO ../tb/scoreboard.sv(146) @ 265: uvm_test_top.env.sbh[0] [scoreboard] got data for wdata queue
UVM_INFO ../AHB_agt/AHB_monitor.sv(39) @ 273: uvm_test_top.env.AHB_agth[0].monh [AHB_monitor] Monitor Data: 
 "-------------------------------------------
Name       Type      Size  Value           
-------------------------------------------
pend_xtn   AHB_xtn   -     @1861           
  HADDR    integral  32    'hae            
  HWRITE   integral  1     'b1             
  HTRANS   integral  2     'b10            
  HSIZE    integral  3     'd0             
  HBURST   integral  3     'd0             
  HWDATA   integral  64    'h9c000000000000
  HBUSREQ  integral  1     'b0             
  HLOCK    integral  1     'b0             
  HREADY   integral  1     'b1             
  HRDATA   integral  64    'h0             
  HRESP    integral  1     'b0             
  HGRANT   integral  1     'b0             
  HMASTER  integral  4     'h0             
-------------------------------------------
"
UVM_INFO ../tb/scoreboard.sv(135) @ 273: uvm_test_top.env.sbh[0] [scoreboard] got ahb data
UVM_INFO ../tb/scoreboard.sv(188) @ 273: uvm_test_top.env.sbh[0] [scoreboard] waiting for wdata queue
UVM_INFO ../tb/scoreboard.sv(193) @ 273: uvm_test_top.env.sbh[0] [scoreboard] DATA MATCH :)
UVM_INFO ../tb/scoreboard.sv(194) @ 273: uvm_test_top.env.sbh[0] [scoreboard] axi_wdata = 9c000000000000, ahb_wdata = 9c000000000000
UVM_INFO ../AHB_agt/AHB_driver.sv(19) @ 273: uvm_test_top.env.AHB_agth[0].drvh [AHB_driver] Data in AHB Driver
---------------------------------------------
Name       Type      Size  Value             
---------------------------------------------
req        AHB_xtn   -     @1795             
  HADDR    integral  32    'h0               
  HWRITE   integral  1     'b0               
  HTRANS   integral  2     'b0               
  HSIZE    integral  3     'd0               
  HBURST   integral  3     'd0               
  HWDATA   integral  64    'h0               
  HBUSREQ  integral  1     'b0               
  HLOCK    integral  1     'b0               
  HREADY   integral  1     'b1               
  HRDATA   integral  64    'h9d33d10446327cac
  HRESP    integral  1     'b1               
  HGRANT   integral  1     'b1               
  HMASTER  integral  4     'h7               
---------------------------------------------
UVM_INFO ../AHB_agt/AHB_driver.sv(19) @ 287: uvm_test_top.env.AHB_agth[0].drvh [AHB_driver] Data in AHB Driver
---------------------------------------------
Name       Type      Size  Value             
---------------------------------------------
req        AHB_xtn   -     @1795             
  HADDR    integral  32    'h0               
  HWRITE   integral  1     'b0               
  HTRANS   integral  2     'b0               
  HSIZE    integral  3     'd0               
  HBURST   integral  3     'd0               
  HWDATA   integral  64    'h0               
  HBUSREQ  integral  1     'b0               
  HLOCK    integral  1     'b0               
  HREADY   integral  1     'b0               
  HRDATA   integral  64    'hcb82d7d505b6ea74
  HRESP    integral  1     'b0               
  HGRANT   integral  1     'b1               
  HMASTER  integral  4     'h5               
---------------------------------------------
UVM_INFO ../tb/scoreboard.sv(146) @ 295: uvm_test_top.env.sbh[0] [scoreboard] got data for wdata queue
UVM_INFO ../AHB_agt/AHB_driver.sv(19) @ 301: uvm_test_top.env.AHB_agth[0].drvh [AHB_driver] Data in AHB Driver
---------------------------------------------
Name       Type      Size  Value             
---------------------------------------------
req        AHB_xtn   -     @1795             
  HADDR    integral  32    'h0               
  HWRITE   integral  1     'b0               
  HTRANS   integral  2     'b0               
  HSIZE    integral  3     'd0               
  HBURST   integral  3     'd0               
  HWDATA   integral  64    'h0               
  HBUSREQ  integral  1     'b0               
  HLOCK    integral  1     'b0               
  HREADY   integral  1     'b0               
  HRDATA   integral  64    'h99dfbf77eb1a791d
  HRESP    integral  1     'b1               
  HGRANT   integral  1     'b1               
  HMASTER  integral  4     'h8               
---------------------------------------------
UVM_INFO ../AHB_agt/AHB_driver.sv(19) @ 315: uvm_test_top.env.AHB_agth[0].drvh [AHB_driver] Data in AHB Driver
---------------------------------------------
Name       Type      Size  Value             
---------------------------------------------
req        AHB_xtn   -     @1795             
  HADDR    integral  32    'h0               
  HWRITE   integral  1     'b0               
  HTRANS   integral  2     'b0               
  HSIZE    integral  3     'd0               
  HBURST   integral  3     'd0               
  HWDATA   integral  64    'h0               
  HBUSREQ  integral  1     'b0               
  HLOCK    integral  1     'b0               
  HREADY   integral  1     'b0               
  HRDATA   integral  64    'h4f0e6ae731d67c22
  HRESP    integral  1     'b1               
  HGRANT   integral  1     'b1               
  HMASTER  integral  4     'h1               
---------------------------------------------
UVM_INFO ../tb/scoreboard.sv(146) @ 325: uvm_test_top.env.sbh[0] [scoreboard] got data for wdata queue
UVM_INFO ../AHB_agt/AHB_driver.sv(19) @ 329: uvm_test_top.env.AHB_agth[0].drvh [AHB_driver] Data in AHB Driver
---------------------------------------------
Name       Type      Size  Value             
---------------------------------------------
req        AHB_xtn   -     @1795             
  HADDR    integral  32    'h0               
  HWRITE   integral  1     'b0               
  HTRANS   integral  2     'b0               
  HSIZE    integral  3     'd0               
  HBURST   integral  3     'd0               
  HWDATA   integral  64    'h0               
  HBUSREQ  integral  1     'b0               
  HLOCK    integral  1     'b0               
  HREADY   integral  1     'b1               
  HRDATA   integral  64    'h47489ebbfc66e46c
  HRESP    integral  1     'b1               
  HGRANT   integral  1     'b1               
  HMASTER  integral  4     'hc               
---------------------------------------------
UVM_INFO ../AHB_agt/AHB_driver.sv(19) @ 343: uvm_test_top.env.AHB_agth[0].drvh [AHB_driver] Data in AHB Driver
---------------------------------------------
Name       Type      Size  Value             
---------------------------------------------
req        AHB_xtn   -     @1795             
  HADDR    integral  32    'h0               
  HWRITE   integral  1     'b0               
  HTRANS   integral  2     'b0               
  HSIZE    integral  3     'd0               
  HBURST   integral  3     'd0               
  HWDATA   integral  64    'h0               
  HBUSREQ  integral  1     'b0               
  HLOCK    integral  1     'b0               
  HREADY   integral  1     'b1               
  HRDATA   integral  64    'ha2d84a2e50410650
  HRESP    integral  1     'b0               
  HGRANT   integral  1     'b1               
  HMASTER  integral  4     'hb               
---------------------------------------------
UVM_INFO ../tb/scoreboard.sv(146) @ 355: uvm_test_top.env.sbh[0] [scoreboard] got data for wdata queue
UVM_INFO ../AHB_agt/AHB_monitor.sv(39) @ 357: uvm_test_top.env.AHB_agth[0].monh [AHB_monitor] Monitor Data: 
 "---------------------------------------------
Name       Type      Size  Value             
---------------------------------------------
pend_xtn   AHB_xtn   -     @1877             
  HADDR    integral  32    'haf              
  HWRITE   integral  1     'b1               
  HTRANS   integral  2     'b10              
  HSIZE    integral  3     'd0               
  HBURST   integral  3     'd0               
  HWDATA   integral  64    'h5c00000000000000
  HBUSREQ  integral  1     'b0               
  HLOCK    integral  1     'b0               
  HREADY   integral  1     'b1               
  HRDATA   integral  64    'h0               
  HRESP    integral  1     'b0               
  HGRANT   integral  1     'b0               
  HMASTER  integral  4     'h0               
---------------------------------------------
"
UVM_INFO ../tb/scoreboard.sv(135) @ 357: uvm_test_top.env.sbh[0] [scoreboard] got ahb data
UVM_INFO ../tb/scoreboard.sv(188) @ 357: uvm_test_top.env.sbh[0] [scoreboard] waiting for wdata queue
UVM_INFO ../tb/scoreboard.sv(193) @ 357: uvm_test_top.env.sbh[0] [scoreboard] DATA MATCH :)
UVM_INFO ../tb/scoreboard.sv(194) @ 357: uvm_test_top.env.sbh[0] [scoreboard] axi_wdata = 5c00000000000000, ahb_wdata = 5c00000000000000
UVM_INFO ../AHB_agt/AHB_driver.sv(19) @ 357: uvm_test_top.env.AHB_agth[0].drvh [AHB_driver] Data in AHB Driver
---------------------------------------------
Name       Type      Size  Value             
---------------------------------------------
req        AHB_xtn   -     @1795             
  HADDR    integral  32    'h0               
  HWRITE   integral  1     'b0               
  HTRANS   integral  2     'b0               
  HSIZE    integral  3     'd0               
  HBURST   integral  3     'd0               
  HWDATA   integral  64    'h0               
  HBUSREQ  integral  1     'b0               
  HLOCK    integral  1     'b0               
  HREADY   integral  1     'b1               
  HRDATA   integral  64    'hfe9c43b2dd61cf45
  HRESP    integral  1     'b1               
  HGRANT   integral  1     'b0               
  HMASTER  integral  4     'h8               
---------------------------------------------
UVM_INFO ../AHB_agt/AHB_monitor.sv(39) @ 371: uvm_test_top.env.AHB_agth[0].monh [AHB_monitor] Monitor Data: 
 "--------------------------------
Name       Type      Size  Value
--------------------------------
pend_xtn   AHB_xtn   -     @1885
  HADDR    integral  32    'haf 
  HWRITE   integral  1     'b1  
  HTRANS   integral  2     'b10 
  HSIZE    integral  3     'd0  
  HBURST   integral  3     'd0  
  HWDATA   integral  64    'h9f 
  HBUSREQ  integral  1     'b0  
  HLOCK    integral  1     'b0  
  HREADY   integral  1     'b1  
  HRDATA   integral  64    'h0  
  HRESP    integral  1     'b0  
  HGRANT   integral  1     'b0  
  HMASTER  integral  4     'h0  
--------------------------------
"
UVM_INFO ../tb/scoreboard.sv(135) @ 371: uvm_test_top.env.sbh[0] [scoreboard] got ahb data
UVM_INFO ../tb/scoreboard.sv(188) @ 371: uvm_test_top.env.sbh[0] [scoreboard] waiting for wdata queue
UVM_INFO ../tb/scoreboard.sv(193) @ 371: uvm_test_top.env.sbh[0] [scoreboard] DATA MATCH :)
UVM_INFO ../tb/scoreboard.sv(194) @ 371: uvm_test_top.env.sbh[0] [scoreboard] axi_wdata = 9f, ahb_wdata = 9f
UVM_INFO ../AHB_agt/AHB_driver.sv(19) @ 371: uvm_test_top.env.AHB_agth[0].drvh [AHB_driver] Data in AHB Driver
---------------------------------------------
Name       Type      Size  Value             
---------------------------------------------
req        AHB_xtn   -     @1795             
  HADDR    integral  32    'h0               
  HWRITE   integral  1     'b0               
  HTRANS   integral  2     'b0               
  HSIZE    integral  3     'd0               
  HBURST   integral  3     'd0               
  HWDATA   integral  64    'h0               
  HBUSREQ  integral  1     'b0               
  HLOCK    integral  1     'b0               
  HREADY   integral  1     'b0               
  HRDATA   integral  64    'hdb84075ac2c8b504
  HRESP    integral  1     'b0               
  HGRANT   integral  1     'b1               
  HMASTER  integral  4     'hf               
---------------------------------------------
UVM_INFO ../tb/scoreboard.sv(146) @ 385: uvm_test_top.env.sbh[0] [scoreboard] got data for wdata queue
UVM_INFO ../AHB_agt/AHB_monitor.sv(39) @ 385: uvm_test_top.env.AHB_agth[0].monh [AHB_monitor] Monitor Data: 
 "---------------------------------
Name       Type      Size  Value 
---------------------------------
pend_xtn   AHB_xtn   -     @1889 
  HADDR    integral  32    'hb0  
  HWRITE   integral  1     'b1   
  HTRANS   integral  2     'b10  
  HSIZE    integral  3     'd0   
  HBURST   integral  3     'd0   
  HWDATA   integral  64    'h8900
  HBUSREQ  integral  1     'b0   
  HLOCK    integral  1     'b0   
  HREADY   integral  1     'b1   
  HRDATA   integral  64    'h0   
  HRESP    integral  1     'b0   
  HGRANT   integral  1     'b0   
  HMASTER  integral  4     'h0   
---------------------------------
"
UVM_INFO ../tb/scoreboard.sv(135) @ 385: uvm_test_top.env.sbh[0] [scoreboard] got ahb data
UVM_INFO ../tb/scoreboard.sv(188) @ 385: uvm_test_top.env.sbh[0] [scoreboard] waiting for wdata queue
UVM_INFO ../tb/scoreboard.sv(193) @ 385: uvm_test_top.env.sbh[0] [scoreboard] DATA MATCH :)
UVM_INFO ../tb/scoreboard.sv(194) @ 385: uvm_test_top.env.sbh[0] [scoreboard] axi_wdata = 8900, ahb_wdata = 8900
UVM_INFO ../AHB_agt/AHB_driver.sv(19) @ 385: uvm_test_top.env.AHB_agth[0].drvh [AHB_driver] Data in AHB Driver
---------------------------------------------
Name       Type      Size  Value             
---------------------------------------------
req        AHB_xtn   -     @1795             
  HADDR    integral  32    'h0               
  HWRITE   integral  1     'b0               
  HTRANS   integral  2     'b0               
  HSIZE    integral  3     'd0               
  HBURST   integral  3     'd0               
  HWDATA   integral  64    'h0               
  HBUSREQ  integral  1     'b0               
  HLOCK    integral  1     'b0               
  HREADY   integral  1     'b0               
  HRDATA   integral  64    'hba793f268b596408
  HRESP    integral  1     'b0               
  HGRANT   integral  1     'b1               
  HMASTER  integral  4     'hb               
---------------------------------------------
UVM_INFO ../AHB_agt/AHB_monitor.sv(39) @ 399: uvm_test_top.env.AHB_agth[0].monh [AHB_monitor] Monitor Data: 
 "-----------------------------------
Name       Type      Size  Value   
-----------------------------------
pend_xtn   AHB_xtn   -     @1897   
  HADDR    integral  32    'hb1    
  HWRITE   integral  1     'b1     
  HTRANS   integral  2     'b10    
  HSIZE    integral  3     'd0     
  HBURST   integral  3     'd0     
  HWDATA   integral  64    'hb50000
  HBUSREQ  integral  1     'b0     
  HLOCK    integral  1     'b0     
  HREADY   integral  1     'b1     
  HRDATA   integral  64    'h0     
  HRESP    integral  1     'b0     
  HGRANT   integral  1     'b0     
  HMASTER  integral  4     'h0     
-----------------------------------
"
UVM_INFO ../tb/scoreboard.sv(135) @ 399: uvm_test_top.env.sbh[0] [scoreboard] got ahb data
UVM_INFO ../tb/scoreboard.sv(188) @ 399: uvm_test_top.env.sbh[0] [scoreboard] waiting for wdata queue
UVM_INFO ../tb/scoreboard.sv(193) @ 399: uvm_test_top.env.sbh[0] [scoreboard] DATA MATCH :)
UVM_INFO ../tb/scoreboard.sv(194) @ 399: uvm_test_top.env.sbh[0] [scoreboard] axi_wdata = b50000, ahb_wdata = b50000
UVM_INFO ../AHB_agt/AHB_driver.sv(19) @ 399: uvm_test_top.env.AHB_agth[0].drvh [AHB_driver] Data in AHB Driver
---------------------------------------------
Name       Type      Size  Value             
---------------------------------------------
req        AHB_xtn   -     @1795             
  HADDR    integral  32    'h0               
  HWRITE   integral  1     'b0               
  HTRANS   integral  2     'b0               
  HSIZE    integral  3     'd0               
  HBURST   integral  3     'd0               
  HWDATA   integral  64    'h0               
  HBUSREQ  integral  1     'b0               
  HLOCK    integral  1     'b0               
  HREADY   integral  1     'b1               
  HRDATA   integral  64    'hf6083971b6b7d263
  HRESP    integral  1     'b1               
  HGRANT   integral  1     'b1               
  HMASTER  integral  4     'h0               
---------------------------------------------
UVM_INFO ../AHB_agt/AHB_monitor.sv(39) @ 413: uvm_test_top.env.AHB_agth[0].monh [AHB_monitor] Monitor Data: 
 "-------------------------------------
Name       Type      Size  Value     
-------------------------------------
pend_xtn   AHB_xtn   -     @1901     
  HADDR    integral  32    'hb2      
  HWRITE   integral  1     'b1       
  HTRANS   integral  2     'b10      
  HSIZE    integral  3     'd0       
  HBURST   integral  3     'd0       
  HWDATA   integral  64    'h8e000000
  HBUSREQ  integral  1     'b0       
  HLOCK    integral  1     'b0       
  HREADY   integral  1     'b1       
  HRDATA   integral  64    'h0       
  HRESP    integral  1     'b0       
  HGRANT   integral  1     'b0       
  HMASTER  integral  4     'h0       
-------------------------------------
"
UVM_INFO ../tb/scoreboard.sv(135) @ 413: uvm_test_top.env.sbh[0] [scoreboard] got ahb data
UVM_INFO ../tb/scoreboard.sv(188) @ 413: uvm_test_top.env.sbh[0] [scoreboard] waiting for wdata queue
UVM_INFO ../tb/scoreboard.sv(193) @ 413: uvm_test_top.env.sbh[0] [scoreboard] DATA MATCH :)
UVM_INFO ../tb/scoreboard.sv(194) @ 413: uvm_test_top.env.sbh[0] [scoreboard] axi_wdata = 8e000000, ahb_wdata = 8e000000
UVM_INFO ../AHB_agt/AHB_driver.sv(19) @ 413: uvm_test_top.env.AHB_agth[0].drvh [AHB_driver] Data in AHB Driver
---------------------------------------------
Name       Type      Size  Value             
---------------------------------------------
req        AHB_xtn   -     @1795             
  HADDR    integral  32    'h0               
  HWRITE   integral  1     'b0               
  HTRANS   integral  2     'b0               
  HSIZE    integral  3     'd0               
  HBURST   integral  3     'd0               
  HWDATA   integral  64    'h0               
  HBUSREQ  integral  1     'b0               
  HLOCK    integral  1     'b0               
  HREADY   integral  1     'b0               
  HRDATA   integral  64    'h186c063d4e4d0148
  HRESP    integral  1     'b1               
  HGRANT   integral  1     'b0               
  HMASTER  integral  4     'h7               
---------------------------------------------
UVM_INFO ../tb/scoreboard.sv(146) @ 415: uvm_test_top.env.sbh[0] [scoreboard] got data for wdata queue
UVM_INFO ../AHB_agt/AHB_driver.sv(19) @ 427: uvm_test_top.env.AHB_agth[0].drvh [AHB_driver] Data in AHB Driver
---------------------------------------------
Name       Type      Size  Value             
---------------------------------------------
req        AHB_xtn   -     @1795             
  HADDR    integral  32    'h0               
  HWRITE   integral  1     'b0               
  HTRANS   integral  2     'b0               
  HSIZE    integral  3     'd0               
  HBURST   integral  3     'd0               
  HWDATA   integral  64    'h0               
  HBUSREQ  integral  1     'b0               
  HLOCK    integral  1     'b0               
  HREADY   integral  1     'b0               
  HRDATA   integral  64    'h2463e6d942cf010e
  HRESP    integral  1     'b1               
  HGRANT   integral  1     'b1               
  HMASTER  integral  4     'h1               
---------------------------------------------
UVM_INFO ../AHB_agt/AHB_driver.sv(19) @ 441: uvm_test_top.env.AHB_agth[0].drvh [AHB_driver] Data in AHB Driver
---------------------------------------------
Name       Type      Size  Value             
---------------------------------------------
req        AHB_xtn   -     @1795             
  HADDR    integral  32    'h0               
  HWRITE   integral  1     'b0               
  HTRANS   integral  2     'b0               
  HSIZE    integral  3     'd0               
  HBURST   integral  3     'd0               
  HWDATA   integral  64    'h0               
  HBUSREQ  integral  1     'b0               
  HLOCK    integral  1     'b0               
  HREADY   integral  1     'b0               
  HRDATA   integral  64    'h94e6eb8b28aa9e69
  HRESP    integral  1     'b1               
  HGRANT   integral  1     'b0               
  HMASTER  integral  4     'hd               
---------------------------------------------
UVM_INFO ../tb/scoreboard.sv(146) @ 445: uvm_test_top.env.sbh[0] [scoreboard] got data for wdata queue
UVM_INFO ../AHB_agt/AHB_driver.sv(19) @ 455: uvm_test_top.env.AHB_agth[0].drvh [AHB_driver] Data in AHB Driver
---------------------------------------------
Name       Type      Size  Value             
---------------------------------------------
req        AHB_xtn   -     @1795             
  HADDR    integral  32    'h0               
  HWRITE   integral  1     'b0               
  HTRANS   integral  2     'b0               
  HSIZE    integral  3     'd0               
  HBURST   integral  3     'd0               
  HWDATA   integral  64    'h0               
  HBUSREQ  integral  1     'b0               
  HLOCK    integral  1     'b0               
  HREADY   integral  1     'b0               
  HRDATA   integral  64    'hdfc05ce0a954fedd
  HRESP    integral  1     'b0               
  HGRANT   integral  1     'b1               
  HMASTER  integral  4     'h9               
---------------------------------------------
UVM_INFO ../AHB_agt/AHB_monitor.sv(39) @ 469: uvm_test_top.env.AHB_agth[0].monh [AHB_monitor] Monitor Data: 
 "---------------------------------------
Name       Type      Size  Value       
---------------------------------------
pend_xtn   AHB_xtn   -     @1917       
  HADDR    integral  32    'hb4        
  HWRITE   integral  1     'b1         
  HTRANS   integral  2     'b10        
  HSIZE    integral  3     'd0         
  HBURST   integral  3     'd0         
  HWDATA   integral  64    'h3900000000
  HBUSREQ  integral  1     'b0         
  HLOCK    integral  1     'b0         
  HREADY   integral  1     'b1         
  HRDATA   integral  64    'h0         
  HRESP    integral  1     'b0         
  HGRANT   integral  1     'b0         
  HMASTER  integral  4     'h0         
---------------------------------------
"
UVM_INFO ../tb/scoreboard.sv(135) @ 469: uvm_test_top.env.sbh[0] [scoreboard] got ahb data
UVM_INFO ../tb/scoreboard.sv(188) @ 469: uvm_test_top.env.sbh[0] [scoreboard] waiting for wdata queue
UVM_INFO ../tb/scoreboard.sv(193) @ 469: uvm_test_top.env.sbh[0] [scoreboard] DATA MATCH :)
UVM_INFO ../tb/scoreboard.sv(194) @ 469: uvm_test_top.env.sbh[0] [scoreboard] axi_wdata = 3900000000, ahb_wdata = 3900000000
UVM_INFO ../AHB_agt/AHB_driver.sv(19) @ 469: uvm_test_top.env.AHB_agth[0].drvh [AHB_driver] Data in AHB Driver
---------------------------------------------
Name       Type      Size  Value             
---------------------------------------------
req        AHB_xtn   -     @1795             
  HADDR    integral  32    'h0               
  HWRITE   integral  1     'b0               
  HTRANS   integral  2     'b0               
  HSIZE    integral  3     'd0               
  HBURST   integral  3     'd0               
  HWDATA   integral  64    'h0               
  HBUSREQ  integral  1     'b0               
  HLOCK    integral  1     'b0               
  HREADY   integral  1     'b0               
  HRDATA   integral  64    'h9715a255e74f64b0
  HRESP    integral  1     'b1               
  HGRANT   integral  1     'b1               
  HMASTER  integral  4     'h9               
---------------------------------------------
UVM_INFO ../tb/scoreboard.sv(146) @ 475: uvm_test_top.env.sbh[0] [scoreboard] got data for wdata queue
UVM_INFO ../AHB_agt/AHB_monitor.sv(39) @ 483: uvm_test_top.env.AHB_agth[0].monh [AHB_monitor] Monitor Data: 
 "-----------------------------------------
Name       Type      Size  Value         
-----------------------------------------
pend_xtn   AHB_xtn   -     @1921         
  HADDR    integral  32    'hb5          
  HWRITE   integral  1     'b1           
  HTRANS   integral  2     'b10          
  HSIZE    integral  3     'd0           
  HBURST   integral  3     'd0           
  HWDATA   integral  64    'h800000000000
  HBUSREQ  integral  1     'b0           
  HLOCK    integral  1     'b0           
  HREADY   integral  1     'b1           
  HRDATA   integral  64    'h0           
  HRESP    integral  1     'b0           
  HGRANT   integral  1     'b0           
  HMASTER  integral  4     'h0           
-----------------------------------------
"
UVM_INFO ../tb/scoreboard.sv(135) @ 483: uvm_test_top.env.sbh[0] [scoreboard] got ahb data
UVM_INFO ../tb/scoreboard.sv(188) @ 483: uvm_test_top.env.sbh[0] [scoreboard] waiting for wdata queue
UVM_INFO ../tb/scoreboard.sv(193) @ 483: uvm_test_top.env.sbh[0] [scoreboard] DATA MATCH :)
UVM_INFO ../tb/scoreboard.sv(194) @ 483: uvm_test_top.env.sbh[0] [scoreboard] axi_wdata = 800000000000, ahb_wdata = 800000000000
UVM_INFO ../tb/scoreboard.sv(146) @ 505: uvm_test_top.env.sbh[0] [scoreboard] got data for wdata queue
UVM_INFO ../tb/scoreboard.sv(146) @ 535: uvm_test_top.env.sbh[0] [scoreboard] got data for wdata queue
UVM_INFO ../AXI_agt/AXI_monitor.sv(183) @ 535: uvm_test_top.env.AXI_agth[0].monh [AXI_monitor] W Channel - WRITE DATA in AXI MONITOR
-----------------------------------------------
Name         Type      Size  Value             
-----------------------------------------------
aw_xtn       AXI_xtn   -     @1655             
  AWID       integral  8     221               
  AWADDR     integral  32    'haa              
  AWLEN      integral  8     'd15              
  AWSIZE     integral  3     'd0               
  AWBURST    integral  2     'd0               
  AWVALID    integral  1     'b1               
  AWREADY    integral  1     'b1               
  WID        integral  8     221               
  WDATA[0]   integral  64    'h864d336403f5fbbe
  WDATA[1]   integral  64    'h7708044b4f952dde
  WDATA[2]   integral  64    'h862a6e29b34896b0
  WDATA[3]   integral  64    'h6ca42470624c19a8
  WDATA[4]   integral  64    'he39c19eccf56a732
  WDATA[5]   integral  64    'h5c20d2d317fed205
  WDATA[6]   integral  64    'h7048fa4f1e08179f
  WDATA[7]   integral  64    'hdc6153b00c0f8946
  WDATA[8]   integral  64    'h364d3f8702b5b55a
  WDATA[9]   integral  64    'h2d391e7f8e069aa5
  WDATA[10]  integral  64    'h36265d392b9b5618
  WDATA[11]  integral  64    'hbd3a80ae138e1e8c
  WDATA[12]  integral  64    'hec26544ad109345 
  WDATA[13]  integral  64    'h4093d1732aebd57f
  WDATA[14]  integral  64    'h8fdeae3eaf45ed4b
  WDATA[15]  integral  64    'h9007bbce5f880e89
  WSTRB[0]   integral  8     'b100             
  WSTRB[1]   integral  8     'b1000            
  WSTRB[2]   integral  8     'b10000           
  WSTRB[3]   integral  8     'b100000          
  WSTRB[4]   integral  8     'b1000000         
  WSTRB[5]   integral  8     'b10000000        
  WSTRB[6]   integral  8     'b1               
  WSTRB[7]   integral  8     'b10              
  WSTRB[8]   integral  8     'b100             
  WSTRB[9]   integral  8     'b1000            
  WSTRB[10]  integral  8     'b10000           
  WSTRB[11]  integral  8     'b100000          
  WSTRB[12]  integral  8     'b1000000         
  WSTRB[13]  integral  8     'b10000000        
  WSTRB[14]  integral  8     'b1               
  WSTRB[15]  integral  8     'b10              
  WLAST      integral  1     'b1               
  WVALID     integral  1     'b1               
  WREADY     integral  1     'b1               
  BID        integral  8     'd0               
  BRESP      integral  1     'b0               
  BVALID     integral  1     'b0               
  BREADY     integral  1     'b0               
  ARID       integral  8     'd0               
  ARADDR     integral  32    'd0               
  ARLEN      integral  8     'd0               
  ARSIZE     integral  3     'd0               
  ARBURST    integral  2     'd0               
  ARVALID    integral  1     'b0               
  ARREADY    integral  1     'b0               
  RID        integral  8     'd0               
  RLAST      integral  1     'b0               
  RVALID     integral  1     'b0               
  RREADY     integral  1     'b0               
-----------------------------------------------
UVM_INFO ../AXI_agt/AXI_monitor.sv(87) @ 535: uvm_test_top.env.AXI_agth[0].monh [AXI_monitor] W Channel method ended
UVM_INFO ../tb/scoreboard.sv(123) @ 535: uvm_test_top.env.sbh[0] [scoreboard] got axi data
UVM_INFO ../AXI_agt/AXI_monitor.sv(95) @ 535: uvm_test_top.env.AXI_agth[0].monh [AXI_monitor] B Channel method started
UVM_INFO ../AXI_agt/AXI_monitor.sv(85) @ 535: uvm_test_top.env.AXI_agth[0].monh [AXI_monitor] W Channel method started
UVM_INFO ../AXI_agt/AXI_driver.sv(113) @ 555: uvm_test_top.env.AXI_agth[0].drvh [AXI_driver] w_channel method ended
UVM_INFO ../AXI_agt/AXI_driver.sv(121) @ 555: uvm_test_top.env.AXI_agth[0].drvh [AXI_driver] b_channel method started
UVM_INFO ../AHB_agt/AHB_monitor.sv(39) @ 567: uvm_test_top.env.AHB_agth[0].monh [AHB_monitor] Monitor Data: 
 "-------------------------------------------
Name       Type      Size  Value           
-------------------------------------------
pend_xtn   AHB_xtn   -     @1945           
  HADDR    integral  32    'hb6            
  HWRITE   integral  1     'b1             
  HTRANS   integral  2     'b10            
  HSIZE    integral  3     'd0             
  HBURST   integral  3     'd0             
  HWDATA   integral  64    'hc2000000000000
  HBUSREQ  integral  1     'b0             
  HLOCK    integral  1     'b0             
  HREADY   integral  1     'b1             
  HRDATA   integral  64    'h0             
  HRESP    integral  1     'b0             
  HGRANT   integral  1     'b0             
  HMASTER  integral  4     'h0             
-------------------------------------------
"
UVM_INFO ../tb/scoreboard.sv(135) @ 567: uvm_test_top.env.sbh[0] [scoreboard] got ahb data
UVM_INFO ../tb/scoreboard.sv(188) @ 567: uvm_test_top.env.sbh[0] [scoreboard] waiting for wdata queue
UVM_INFO ../tb/scoreboard.sv(193) @ 567: uvm_test_top.env.sbh[0] [scoreboard] DATA MATCH :)
UVM_INFO ../tb/scoreboard.sv(194) @ 567: uvm_test_top.env.sbh[0] [scoreboard] axi_wdata = c2000000000000, ahb_wdata = c2000000000000
UVM_INFO ../AXI_agt/AXI_driver.sv(186) @ 575: uvm_test_top.env.AXI_agth[0].drvh [AXI_driver] Inside b_channel driving logic - waiting for bvalid
UVM_INFO ../AHB_agt/AHB_monitor.sv(39) @ 581: uvm_test_top.env.AHB_agth[0].monh [AHB_monitor] Monitor Data: 
 "---------------------------------------------
Name       Type      Size  Value             
---------------------------------------------
pend_xtn   AHB_xtn   -     @1949             
  HADDR    integral  32    'hb6              
  HWRITE   integral  1     'b1               
  HTRANS   integral  2     'b10              
  HSIZE    integral  3     'd0               
  HBURST   integral  3     'd0               
  HWDATA   integral  64    'h4000000000000000
  HBUSREQ  integral  1     'b0               
  HLOCK    integral  1     'b0               
  HREADY   integral  1     'b1               
  HRDATA   integral  64    'h0               
  HRESP    integral  1     'b0               
  HGRANT   integral  1     'b0               
  HMASTER  integral  4     'h0               
---------------------------------------------
"
UVM_INFO ../tb/scoreboard.sv(135) @ 581: uvm_test_top.env.sbh[0] [scoreboard] got ahb data
UVM_INFO ../tb/scoreboard.sv(188) @ 581: uvm_test_top.env.sbh[0] [scoreboard] waiting for wdata queue
UVM_INFO ../tb/scoreboard.sv(193) @ 581: uvm_test_top.env.sbh[0] [scoreboard] DATA MATCH :)
UVM_INFO ../tb/scoreboard.sv(194) @ 581: uvm_test_top.env.sbh[0] [scoreboard] axi_wdata = 4000000000000000, ahb_wdata = 4000000000000000
UVM_INFO ../AHB_agt/AHB_monitor.sv(39) @ 595: uvm_test_top.env.AHB_agth[0].monh [AHB_monitor] Monitor Data: 
 "--------------------------------
Name       Type      Size  Value
--------------------------------
pend_xtn   AHB_xtn   -     @1953
  HADDR    integral  32    'hb7 
  HWRITE   integral  1     'b1  
  HTRANS   integral  2     'b10 
  HSIZE    integral  3     'd0  
  HBURST   integral  3     'd0  
  HWDATA   integral  64    'h4b 
  HBUSREQ  integral  1     'b0  
  HLOCK    integral  1     'b0  
  HREADY   integral  1     'b1  
  HRDATA   integral  64    'h0  
  HRESP    integral  1     'b0  
  HGRANT   integral  1     'b0  
  HMASTER  integral  4     'h0  
--------------------------------
"
UVM_INFO ../tb/scoreboard.sv(135) @ 595: uvm_test_top.env.sbh[0] [scoreboard] got ahb data
UVM_INFO ../tb/scoreboard.sv(188) @ 595: uvm_test_top.env.sbh[0] [scoreboard] waiting for wdata queue
UVM_INFO ../tb/scoreboard.sv(193) @ 595: uvm_test_top.env.sbh[0] [scoreboard] DATA MATCH :)
UVM_INFO ../tb/scoreboard.sv(194) @ 595: uvm_test_top.env.sbh[0] [scoreboard] axi_wdata = 4b, ahb_wdata = 4b
UVM_INFO ../AHB_agt/AHB_monitor.sv(39) @ 609: uvm_test_top.env.AHB_agth[0].monh [AHB_monitor] Monitor Data: 
 "--------------------------------
Name       Type      Size  Value
--------------------------------
pend_xtn   AHB_xtn   -     @1957
  HADDR    integral  32    'hb8 
  HWRITE   integral  1     'b1  
  HTRANS   integral  2     'b10 
  HSIZE    integral  3     'd0  
  HBURST   integral  3     'd0  
  HWDATA   integral  64    'he00
  HBUSREQ  integral  1     'b0  
  HLOCK    integral  1     'b0  
  HREADY   integral  1     'b1  
  HRDATA   integral  64    'h0  
  HRESP    integral  1     'b0  
  HGRANT   integral  1     'b0  
  HMASTER  integral  4     'h0  
--------------------------------
"
UVM_INFO ../tb/scoreboard.sv(135) @ 609: uvm_test_top.env.sbh[0] [scoreboard] got ahb data
UVM_INFO ../tb/scoreboard.sv(188) @ 609: uvm_test_top.env.sbh[0] [scoreboard] waiting for wdata queue
UVM_INFO ../tb/scoreboard.sv(193) @ 609: uvm_test_top.env.sbh[0] [scoreboard] DATA MATCH :)
UVM_INFO ../tb/scoreboard.sv(194) @ 609: uvm_test_top.env.sbh[0] [scoreboard] axi_wdata = e00, ahb_wdata = e00
UVM_INFO /home/cad/eda/SYNOPSYS/vcs_all_vX-2025.06/vcs/X-2025.06/etc/uvm/base/uvm_objection.svh(1274) @ 783: reporter [TEST_DONE] 'run' phase is ready to proceed to the 'extract' phase

--- UVM Report Summary ---

** Report counts by severity
UVM_INFO :  168
UVM_WARNING :    0
UVM_ERROR :    0
UVM_FATAL :    0
** Report counts by id
[AHB_driver]    31
[AHB_monitor]    16
[AHB_rst_driver]     2
[AHB_rst_monitor]     3
[AXI_driver]     7
[AXI_monitor]    13
[AXI_rst_driver]     2
[AXI_rst_monitor]     3
[RNTST]     1
[TEST_DONE]     1
[UVMTOP]     1
[scoreboard]    88
$finish called from file "/home/cad/eda/SYNOPSYS/vcs_all_vX-2025.06/vcs/X-2025.06/etc/uvm/base/uvm_root.svh", line 437.
$finish at simulation time                  783
           V C S   S i m u l a t i o n   R e p o r t 
Time: 783 ns
CPU Time:      0.410 seconds;       Data structure size:   0.8Mb
Tue Aug  4 03:33:32 2026
Command: /home2/B126/AKSSolomon/VLSI_RN_OFFLINE/AXI2AHB_Bridge/sim/./simv -a out.log +UVM_TESTNAME=AXI_write_increment_test +ntb_random_seed_automatic -cm_dir ./axiincrement_data
Chronologic VCS simulator copyright 1991-2025
Contains Synopsys proprietary information.
Compiler version X-2025.06_Full64; Runtime version X-2025.06_Full64;  Aug  4 03:33 2026
NOTE: automatic random seed used: 1660741545
----------------------------------------------------------------
UVM-1.1d.Synopsys
(C) 2007-2013 Mentor Graphics Corporation
(C) 2007-2013 Cadence Design Systems, Inc.
(C) 2006-2013 Synopsys, Inc.
(C) 2011-2013 Cypress Semiconductor Corp.
----------------------------------------------------------------

  ***********       IMPORTANT RELEASE NOTES         ************

  You are using a version of the UVM library that has been compiled
  with `UVM_NO_DEPRECATED undefined.
  See http://www.eda.org/svdb/view.php?id=3313 for more details.

  You are using a version of the UVM library that has been compiled
  with `UVM_OBJECT_MUST_HAVE_CONSTRUCTOR undefined.
  See http://www.eda.org/svdb/view.php?id=3770 for more details.

      (Specify +UVM_NO_RELNOTES to turn off this notice)

UVM_INFO @ 0: reporter [RNTST] Running test AXI_write_increment_test...
*Verdi* Loading libsscore_vcs202506.so
FSDB Dumper for VCS, Release Verdi_X-2025.06, Linux x86_64/64bit, 05/31/2025
(C) 1996 - 2025 by Synopsys, Inc.
*Verdi* FSDB WARNING: The FSDB file already exists. Overwriting the FSDB file may crash the programs that are using this file.
*Verdi* : Create FSDB file 'wave.fsdb'
*Verdi* : Begin traversing the scope (top), layer (0).
*Verdi* : End of traversing.
UVM_INFO @ 0: reporter [UVMTOP] UVM testbench topology:
-------------------------------------------------------------------
Name                        Type                        Size  Value
-------------------------------------------------------------------
uvm_test_top                AXI_write_increment_test    -     @483 
  env                       env                         -     @496 
    AHB_agth[0]             AHB_agent                   -     @870 
      drvh                  AHB_driver                  -     @918 
        rsp_port            uvm_analysis_port           -     @935 
        seq_item_port       uvm_seq_item_pull_port      -     @926 
      monh                  AHB_monitor                 -     @898 
        AHB_mon_port        uvm_analysis_port           -     @906 
      seqrh                 AHB_sequencer               -     @944 
        rsp_export          uvm_analysis_export         -     @952 
        seq_item_export     uvm_seq_item_pull_imp       -     @1058
        arbitration_queue   array                       0     -    
        lock_queue          array                       0     -    
        num_last_reqs       integral                    32    'd1  
        num_last_rsps       integral                    32    'd1  
    AHB_rst_agth[0]         AHB_rst_agent               -     @885 
      drvh                  AHB_rst_driver              -     @1098
        rsp_port            uvm_analysis_port           -     @1115
        seq_item_port       uvm_seq_item_pull_port      -     @1106
      monh                  AHB_rst_monitor             -     @1079
        AHB_rst_mon_port    uvm_analysis_port           -     @1087
      seqrh                 AHB_rst_sequencer           -     @1124
        rsp_export          uvm_analysis_export         -     @1132
        seq_item_export     uvm_seq_item_pull_imp       -     @1238
        arbitration_queue   array                       0     -    
        lock_queue          array                       0     -    
        num_last_reqs       integral                    32    'd1  
        num_last_rsps       integral                    32    'd1  
    AXI_agth[0]             AXI_agent                   -     @841 
      drvh                  AXI_driver                  -     @1299
        rsp_port            uvm_analysis_port           -     @1316
        seq_item_port       uvm_seq_item_pull_port      -     @1307
      monh                  AXI_monitor                 -     @1263
        AXI_mon_port        uvm_analysis_port           -     @1271
        AXI_rdata_mon_port  uvm_analysis_port           -     @1289
        AXI_wdata_mon_port  uvm_analysis_port           -     @1280
      seqrh                 AXI_sequencer               -     @1325
        rsp_export          uvm_analysis_export         -     @1333
        seq_item_export     uvm_seq_item_pull_imp       -     @1439
        arbitration_queue   array                       0     -    
        lock_queue          array                       0     -    
        num_last_reqs       integral                    32    'd1  
        num_last_rsps       integral                    32    'd1  
    AXI_rst_agth[0]         AXI_rst_agent               -     @856 
      drvh                  AXI_rst_driver              -     @1478
        rsp_port            uvm_analysis_port           -     @1495
        seq_item_port       uvm_seq_item_pull_port      -     @1486
      monh                  AXI_rst_monitor             -     @1460
        AXI_rst_mon_port    uvm_analysis_port           -     @1468
      seqrh                 AXI_rst_sequencer           -     @1504
        rsp_export          uvm_analysis_export         -     @1512
        seq_item_export     uvm_seq_item_pull_imp       -     @1618
        arbitration_queue   array                       0     -    
        lock_queue          array                       0     -    
        num_last_reqs       integral                    32    'd1  
        num_last_rsps       integral                    32    'd1  
    sbh[0]                  scoreboard                  -     @509 
      AHB_fifoh             uvm_tlm_analysis_fifo #(T)  -     @623 
        analysis_export     uvm_analysis_imp            -     @667 
        get_ap              uvm_analysis_port           -     @658 
        get_peek_export     uvm_get_peek_imp            -     @640 
        put_ap              uvm_analysis_port           -     @649 
        put_export          uvm_put_imp                 -     @631 
      AHB_rst_fifoh         uvm_tlm_analysis_fifo #(T)  -     @676 
        analysis_export     uvm_analysis_imp            -     @720 
        get_ap              uvm_analysis_port           -     @711 
        get_peek_export     uvm_get_peek_imp            -     @693 
        put_ap              uvm_analysis_port           -     @702 
        put_export          uvm_put_imp                 -     @684 
      AXI_fifoh             uvm_tlm_analysis_fifo #(T)  -     @517 
        analysis_export     uvm_analysis_imp            -     @561 
        get_ap              uvm_analysis_port           -     @552 
        get_peek_export     uvm_get_peek_imp            -     @534 
        put_ap              uvm_analysis_port           -     @543 
        put_export          uvm_put_imp                 -     @525 
      AXI_rdata_fifoh       uvm_tlm_analysis_fifo #(T)  -     @782 
        analysis_export     uvm_analysis_imp            -     @826 
        get_ap              uvm_analysis_port           -     @817 
        get_peek_export     uvm_get_peek_imp            -     @799 
        put_ap              uvm_analysis_port           -     @808 
        put_export          uvm_put_imp                 -     @790 
      AXI_rst_fifoh         uvm_tlm_analysis_fifo #(T)  -     @570 
        analysis_export     uvm_analysis_imp            -     @614 
        get_ap              uvm_analysis_port           -     @605 
        get_peek_export     uvm_get_peek_imp            -     @587 
        put_ap              uvm_analysis_port           -     @596 
        put_export          uvm_put_imp                 -     @578 
      AXI_wdata_fifoh       uvm_tlm_analysis_fifo #(T)  -     @729 
        analysis_export     uvm_analysis_imp            -     @773 
        get_ap              uvm_analysis_port           -     @764 
        get_peek_export     uvm_get_peek_imp            -     @746 
        put_ap              uvm_analysis_port           -     @755 
        put_export          uvm_put_imp                 -     @737 
-------------------------------------------------------------------

UVM_INFO ../AXI_agt/AXI_monitor.sv(75) @ 0: uvm_test_top.env.AXI_agth[0].monh [AXI_monitor] AW Channel method started
UVM_INFO ../AXI_agt/AXI_monitor.sv(103) @ 0: uvm_test_top.env.AXI_agth[0].monh [AXI_monitor] AR Channel method started
UVM_INFO ../tb/scoreboard.sv(123) @ 0: uvm_test_top.env.sbh[0] [scoreboard] got axi data
UVM_INFO ../AXI_rst_agt/AXI_rst_driver.sv(18) @ 0: uvm_test_top.env.AXI_rst_agth[0].drvh [AXI_rst_driver] Data in driver
-----------------------------------
Name       Type         Size  Value
-----------------------------------
req        AXI_rst_xtn  -     @1665
  ARESETn  integral     1     'b0  
  BVALID   integral     1     'bx  
  RVALID   integral     1     'bx  
-----------------------------------
UVM_INFO ../AHB_rst_agt/AHB_rst_driver.sv(22) @ 0: uvm_test_top.env.AHB_rst_agth[0].drvh [AHB_rst_driver] Data in AHB_rst_driver
-----------------------------------
Name       Type         Size  Value
-----------------------------------
req        AHB_rst_xtn  -     @1669
  HRESETn  integral     1     'b0  
  HREADY   integral     1     'b1  
  HTRANS   integral     2     'bxx 
-----------------------------------
UVM_INFO ../AXI_rst_agt/AXI_rst_monitor.sv(38) @ 15: uvm_test_top.env.AXI_rst_agth[0].monh [AXI_rst_monitor] Data in AXI RST MONITOR
-----------------------------------
Name       Type         Size  Value
-----------------------------------
xtn        AXI_rst_xtn  -     @1641
  ARESETn  integral     1     'b0  
  BVALID   integral     1     'b0  
  RVALID   integral     1     'b0  
-----------------------------------
UVM_INFO ../tb/scoreboard.sv(161) @ 15: uvm_test_top.env.sbh[0] [scoreboard] AXI rst GOOD
UVM_INFO ../AXI_rst_agt/AXI_rst_driver.sv(18) @ 15: uvm_test_top.env.AXI_rst_agth[0].drvh [AXI_rst_driver] Data in driver
-----------------------------------
Name       Type         Size  Value
-----------------------------------
req        AXI_rst_xtn  -     @1665
  ARESETn  integral     1     'b1  
  BVALID   integral     1     'bx  
  RVALID   integral     1     'bx  
-----------------------------------
UVM_INFO ../AHB_rst_agt/AHB_rst_monitor.sv(37) @ 21: uvm_test_top.env.AHB_rst_agth[0].monh [AHB_rst_monitor] Data in AHB RST MONITOR
-----------------------------------
Name       Type         Size  Value
-----------------------------------
xtn        AHB_rst_xtn  -     @1251
  HRESETn  integral     1     'b0  
  HREADY   integral     1     'b0  
  HTRANS   integral     2     'b0  
-----------------------------------
UVM_INFO ../tb/scoreboard.sv(171) @ 21: uvm_test_top.env.sbh[0] [scoreboard] AHB rst GOOD
UVM_INFO ../AHB_rst_agt/AHB_rst_driver.sv(22) @ 21: uvm_test_top.env.AHB_rst_agth[0].drvh [AHB_rst_driver] Data in AHB_rst_driver
-----------------------------------
Name       Type         Size  Value
-----------------------------------
req        AHB_rst_xtn  -     @1669
  HRESETn  integral     1     'b1  
  HREADY   integral     1     'b1  
  HTRANS   integral     2     'bxx 
-----------------------------------
UVM_INFO ../AXI_rst_agt/AXI_rst_monitor.sv(38) @ 25: uvm_test_top.env.AXI_rst_agth[0].monh [AXI_rst_monitor] Data in AXI RST MONITOR
-----------------------------------
Name       Type         Size  Value
-----------------------------------
xtn        AXI_rst_xtn  -     @1769
  ARESETn  integral     1     'b0  
  BVALID   integral     1     'b0  
  RVALID   integral     1     'b0  
-----------------------------------
UVM_INFO ../tb/scoreboard.sv(161) @ 25: uvm_test_top.env.sbh[0] [scoreboard] AXI rst GOOD
UVM_INFO ../AXI_rst_agt/AXI_rst_monitor.sv(38) @ 35: uvm_test_top.env.AXI_rst_agth[0].monh [AXI_rst_monitor] Data in AXI RST MONITOR
-----------------------------------
Name       Type         Size  Value
-----------------------------------
xtn        AXI_rst_xtn  -     @1775
  ARESETn  integral     1     'b1  
  BVALID   integral     1     'b0  
  RVALID   integral     1     'b0  
-----------------------------------
UVM_INFO ../AHB_rst_agt/AHB_rst_monitor.sv(37) @ 35: uvm_test_top.env.AHB_rst_agth[0].monh [AHB_rst_monitor] Data in AHB RST MONITOR
-----------------------------------
Name       Type         Size  Value
-----------------------------------
xtn        AHB_rst_xtn  -     @1251
  HRESETn  integral     1     'b0  
  HREADY   integral     1     'b0  
  HTRANS   integral     2     'b0  
-----------------------------------
UVM_INFO ../tb/scoreboard.sv(171) @ 35: uvm_test_top.env.sbh[0] [scoreboard] AHB rst GOOD
UVM_INFO ../AHB_rst_agt/AHB_rst_monitor.sv(37) @ 49: uvm_test_top.env.AHB_rst_agth[0].monh [AHB_rst_monitor] Data in AHB RST MONITOR
-----------------------------------
Name       Type         Size  Value
-----------------------------------
xtn        AHB_rst_xtn  -     @1251
  HRESETn  integral     1     'b1  
  HREADY   integral     1     'b0  
  HTRANS   integral     2     'b0  
-----------------------------------
UVM_INFO ../AHB_agt/AHB_driver.sv(19) @ 49: uvm_test_top.env.AHB_agth[0].drvh [AHB_driver] Data in AHB Driver
---------------------------------------------
Name       Type      Size  Value             
---------------------------------------------
req        AHB_xtn   -     @1795             
  HADDR    integral  32    'h0               
  HWRITE   integral  1     'b0               
  HTRANS   integral  2     'b0               
  HSIZE    integral  3     'd0               
  HBURST   integral  3     'd0               
  HWDATA   integral  64    'h0               
  HBUSREQ  integral  1     'b0               
  HLOCK    integral  1     'b0               
  HREADY   integral  1     'b1               
  HRDATA   integral  64    'h65648cdf73f9e712
  HRESP    integral  1     'b1               
  HGRANT   integral  1     'b0               
  HMASTER  integral  4     'h7               
---------------------------------------------
UVM_INFO ../AXI_agt/AXI_driver.sv(101) @ 49: uvm_test_top.env.AXI_agth[0].drvh [AXI_driver] aw_channel method started
UVM_INFO ../AHB_agt/AHB_driver.sv(19) @ 63: uvm_test_top.env.AHB_agth[0].drvh [AHB_driver] Data in AHB Driver
---------------------------------------------
Name       Type      Size  Value             
---------------------------------------------
req        AHB_xtn   -     @1795             
  HADDR    integral  32    'h0               
  HWRITE   integral  1     'b0               
  HTRANS   integral  2     'b0               
  HSIZE    integral  3     'd0               
  HBURST   integral  3     'd0               
  HWDATA   integral  64    'h0               
  HBUSREQ  integral  1     'b0               
  HLOCK    integral  1     'b0               
  HREADY   integral  1     'b0               
  HRDATA   integral  64    'h4f22cc8622acf9ab
  HRESP    integral  1     'b0               
  HGRANT   integral  1     'b1               
  HMASTER  integral  4     'h9               
---------------------------------------------
UVM_INFO ../AXI_agt/AXI_monitor.sv(139) @ 65: uvm_test_top.env.AXI_agth[0].monh [AXI_monitor] AW Channel - WRITE DATA in AXI MONITOR
-------------------------------------
Name       Type      Size  Value     
-------------------------------------
aw_xtn     AXI_xtn   -     @1655     
  AWID     integral  8     'd21      
  AWADDR   integral  32    'ha7dd886d
  AWLEN    integral  8     'd5       
  AWSIZE   integral  3     'd1       
  AWBURST  integral  2     'd1       
  AWVALID  integral  1     'b1       
  AWREADY  integral  1     'b1       
  WID      integral  8     'd0       
  WLAST    integral  1     'b0       
  WVALID   integral  1     'b0       
  WREADY   integral  1     'b0       
  BID      integral  8     'd0       
  BRESP    integral  1     'b0       
  BVALID   integral  1     'b0       
  BREADY   integral  1     'b0       
  ARID     integral  8     'd0       
  ARADDR   integral  32    'd0       
  ARLEN    integral  8     'd0       
  ARSIZE   integral  3     'd0       
  ARBURST  integral  2     'd0       
  ARVALID  integral  1     'b0       
  ARREADY  integral  1     'b0       
  RID      integral  8     'd0       
  RLAST    integral  1     'b0       
  RVALID   integral  1     'b0       
  RREADY   integral  1     'b0       
-------------------------------------
UVM_INFO ../tb/scoreboard.sv(123) @ 65: uvm_test_top.env.sbh[0] [scoreboard] got axi data
UVM_INFO ../AXI_agt/AXI_monitor.sv(77) @ 65: uvm_test_top.env.AXI_agth[0].monh [AXI_monitor] AW Channel method ended
UVM_INFO ../AXI_agt/AXI_monitor.sv(85) @ 65: uvm_test_top.env.AXI_agth[0].monh [AXI_monitor] W Channel method started
UVM_INFO ../AXI_agt/AXI_monitor.sv(75) @ 65: uvm_test_top.env.AXI_agth[0].monh [AXI_monitor] AW Channel method started
UVM_INFO ../AXI_agt/AXI_monitor.sv(139) @ 65: uvm_test_top.env.AXI_agth[0].monh [AXI_monitor] AW Channel - WRITE DATA in AXI MONITOR
-------------------------------------
Name       Type      Size  Value     
-------------------------------------
aw_xtn     AXI_xtn   -     @1808     
  AWID     integral  8     'd21      
  AWADDR   integral  32    'ha7dd886d
  AWLEN    integral  8     'd5       
  AWSIZE   integral  3     'd1       
  AWBURST  integral  2     'd1       
  AWVALID  integral  1     'b1       
  AWREADY  integral  1     'b1       
  WID      integral  8     'd0       
  WLAST    integral  1     'b0       
  WVALID   integral  1     'b0       
  WREADY   integral  1     'b0       
  BID      integral  8     'd0       
  BRESP    integral  1     'b0       
  BVALID   integral  1     'b0       
  BREADY   integral  1     'b0       
  ARID     integral  8     'd0       
  ARADDR   integral  32    'd0       
  ARLEN    integral  8     'd0       
  ARSIZE   integral  3     'd0       
  ARBURST  integral  2     'd0       
  ARVALID  integral  1     'b0       
  ARREADY  integral  1     'b0       
  RID      integral  8     'd0       
  RLAST    integral  1     'b0       
  RVALID   integral  1     'b0       
  RREADY   integral  1     'b0       
-------------------------------------
UVM_INFO ../tb/scoreboard.sv(123) @ 65: uvm_test_top.env.sbh[0] [scoreboard] got axi data
UVM_INFO ../AXI_agt/AXI_driver.sv(103) @ 75: uvm_test_top.env.AXI_agth[0].drvh [AXI_driver] aw_channel method ended
UVM_INFO ../AXI_agt/AXI_driver.sv(37) @ 75: uvm_test_top.env.AXI_agth[0].drvh [AXI_driver] Data in AXI driver
----------------------------------------------
Name        Type      Size  Value             
----------------------------------------------
req         AXI_xtn   -     @1787             
  AWID      integral  8     'd21              
  AWADDR    integral  32    'ha7dd886d        
  AWLEN     integral  8     'd5               
  AWSIZE    integral  3     'd1               
  AWBURST   integral  2     'd1               
  AWVALID   integral  1     'b1               
  AWREADY   integral  1     'b0               
  WID       integral  8     'd21              
  WDATA[0]  integral  64    'h9f3a7a104cc1b189
  WDATA[1]  integral  64    'hb00125d5c70188fc
  WDATA[2]  integral  64    'h84fff9aa25855773
  WDATA[3]  integral  64    'h63987a25470f95fb
  WDATA[4]  integral  64    'ha3c918871eafe216
  WDATA[5]  integral  64    'h83faa05df0bbb8e4
  WSTRB[0]  integral  8     'b100000          
  WSTRB[1]  integral  8     'b11000000        
  WSTRB[2]  integral  8     'b11              
  WSTRB[3]  integral  8     'b1100            
  WSTRB[4]  integral  8     'b110000          
  WSTRB[5]  integral  8     'b11000000        
  WLAST     integral  1     'b0               
  WVALID    integral  1     'b1               
  WREADY    integral  1     'b0               
  BID       integral  8     'd0               
  BRESP     integral  1     'b0               
  BVALID    integral  1     'b0               
  BREADY    integral  1     'b1               
  ARID      integral  8     238               
  ARADDR    integral  32    'd783608710       
  ARLEN     integral  8     228               
  ARSIZE    integral  3     'd0               
  ARBURST   integral  2     2                 
  ARVALID   integral  1     'b0               
  ARREADY   integral  1     'b0               
  RID       integral  8     'd0               
  RLAST     integral  1     'b0               
  RVALID    integral  1     'b0               
  RREADY    integral  1     'b0               
----------------------------------------------
UVM_INFO ../AXI_agt/AXI_monitor.sv(77) @ 75: uvm_test_top.env.AXI_agth[0].monh [AXI_monitor] AW Channel method ended
UVM_INFO ../AXI_agt/AXI_driver.sv(111) @ 75: uvm_test_top.env.AXI_agth[0].drvh [AXI_driver] w_channel method started
UVM_INFO ../AXI_agt/AXI_monitor.sv(75) @ 75: uvm_test_top.env.AXI_agth[0].monh [AXI_monitor] AW Channel method started
UVM_INFO ../AHB_agt/AHB_driver.sv(19) @ 77: uvm_test_top.env.AHB_agth[0].drvh [AHB_driver] Data in AHB Driver
--------------------------------------------
Name       Type      Size  Value            
--------------------------------------------
req        AHB_xtn   -     @1795            
  HADDR    integral  32    'h0              
  HWRITE   integral  1     'b0              
  HTRANS   integral  2     'b0              
  HSIZE    integral  3     'd0              
  HBURST   integral  3     'd0              
  HWDATA   integral  64    'h0              
  HBUSREQ  integral  1     'b0              
  HLOCK    integral  1     'b0              
  HREADY   integral  1     'b0              
  HRDATA   integral  64    'h41f8f47c4bedd2e
  HRESP    integral  1     'b1              
  HGRANT   integral  1     'b1              
  HMASTER  integral  4     'h9              
--------------------------------------------
UVM_INFO ../tb/scoreboard.sv(146) @ 85: uvm_test_top.env.sbh[0] [scoreboard] got data for wdata queue
UVM_INFO ../AHB_agt/AHB_driver.sv(19) @ 91: uvm_test_top.env.AHB_agth[0].drvh [AHB_driver] Data in AHB Driver
---------------------------------------------
Name       Type      Size  Value             
---------------------------------------------
req        AHB_xtn   -     @1795             
  HADDR    integral  32    'h0               
  HWRITE   integral  1     'b0               
  HTRANS   integral  2     'b0               
  HSIZE    integral  3     'd0               
  HBURST   integral  3     'd0               
  HWDATA   integral  64    'h0               
  HBUSREQ  integral  1     'b0               
  HLOCK    integral  1     'b0               
  HREADY   integral  1     'b0               
  HRDATA   integral  64    'hb52bbb494e087d4c
  HRESP    integral  1     'b1               
  HGRANT   integral  1     'b0               
  HMASTER  integral  4     'h4               
---------------------------------------------
